Freq.	V(vout)
1.00000000000000e+000	(-6.80440532078046e-004dB,-4.06600127129004e-006°)
1.02329299228075e+000	(-6.80440532045257e-004dB,-4.16071060751572e-006°)
1.04712854805090e+000	(-6.80440532012467e-004dB,-4.25762600757910e-006°)
1.07151930523761e+000	(-6.80440531983535e-004dB,-4.35679885730803e-006°)
1.09647819614318e+000	(-6.80440531946887e-004dB,-4.45828173946009e-006°)
1.12201845430196e+000	(-6.80440531913133e-004dB,-4.56212846160279e-006°)
1.14815362149688e+000	(-6.80440531875522e-004dB,-4.66839408464276e-006°)
1.17489755493953e+000	(-6.80440531834052e-004dB,-4.77713495201985e-006°)
1.20226443461741e+000	(-6.80440531793547e-004dB,-4.88840871958145e-006°)
1.23026877081238e+000	(-6.80440531752078e-004dB,-5.00227438615185e-006°)
1.25892541179417e+000	(-6.80440531702894e-004dB,-5.11879232481472e-006°)
1.28824955169313e+000	(-6.80440531656602e-004dB,-5.23802431492345e-006°)
1.31825673855641e+000	(-6.80440531605489e-004dB,-5.36003357485737e-006°)
1.34896288259165e+000	(-6.80440531557269e-004dB,-5.48488479554114e-006°)
1.38038426460288e+000	(-6.80440531500369e-004dB,-5.61264417474457e-006°)
1.41253754462275e+000	(-6.80440531444434e-004dB,-5.74337945218154e-006°)
1.44543977074593e+000	(-6.80440531383676e-004dB,-5.87715994542671e-006°)
1.47910838816821e+000	(-6.80440531322919e-004dB,-6.01405658666837e-006°)
1.51356124843621e+000	(-6.80440531255410e-004dB,-6.15414196031766e-006°)
1.54881661891248e+000	(-6.80440531186938e-004dB,-6.29749034149413e-006°)
1.58489319246111e+000	(-6.80440531114608e-004dB,-6.44417773540668e-006°)
1.62181009735893e+000	(-6.80440531042277e-004dB,-6.59428191765340e-006°)
1.65958690743756e+000	(-6.80440530963196e-004dB,-6.74788247545849e-006°)
1.69824365246174e+000	(-6.80440530880258e-004dB,-6.90506084987084e-006°)
1.73780082874937e+000	(-6.80440530793462e-004dB,-7.06590037894505e-006°)
1.77827941003892e+000	(-6.80440530701843e-004dB,-7.23048634192854e-006°)
1.81970085860998e+000	(-6.80440530606367e-004dB,-7.39890600447727e-006°)
1.86208713666287e+000	(-6.80440530507998e-004dB,-7.57124866492575e-006°)
1.90546071796325e+000	(-6.80440530404807e-004dB,-7.74760570163353e-006°)
1.94984459975804e+000	(-6.80440530294865e-004dB,-7.92807062143614e-006°)
1.99526231496888e+000	(-6.80440530183959e-004dB,-8.11273910922269e-006°)
2.04173794466953e+000	(-6.80440530066302e-004dB,-8.30170907866974e-006°)
2.08929613085404e+000	(-6.80440529936107e-004dB,-8.49508072415628e-006°)
2.13796208950223e+000	(-6.80440529806877e-004dB,-8.69295657388859e-006°)
2.18776162394955e+000	(-6.80440529673789e-004dB,-8.89544154426141e-006°)
2.23872113856834e+000	(-6.80440529530094e-004dB,-9.10264299548585e-006°)
2.29086765276777e+000	(-6.80440529377718e-004dB,-9.31467078851436e-006°)
2.34422881531992e+000	(-6.80440529220520e-004dB,-9.53163734328916e-006°)
2.39883291901949e+000	(-6.80440529053679e-004dB,-9.75365769834957e-006°)
2.45470891568503e+000	(-6.80440528882015e-004dB,-9.98084957182660e-006°)
2.51188643150958e+000	(-6.80440528702636e-004dB,-1.02133334238587e-005°)
2.57039578276886e+000	(-6.80440528516506e-004dB,-1.04512325204618e-005°)
2.63026799189538e+000	(-6.80440528315910e-004dB,-1.06946729988855e-005°)
2.69153480392691e+000	(-6.80440528107599e-004dB,-1.09437839344940e-005°)
2.75422870333816e+000	(-6.80440527891573e-004dB,-1.11986974092028e-005°)
2.81838293126445e+000	(-6.80440527667831e-004dB,-1.14595485815102e-005°)
2.88403150312660e+000	(-6.80440527426730e-004dB,-1.17264757581606e-005°)
2.95120922666638e+000	(-6.80440527177915e-004dB,-1.19996204674763e-005°)
3.01995172040201e+000	(-6.80440526917526e-004dB,-1.22791275343976e-005°)
3.09029543251359e+000	(-6.80440526642671e-004dB,-1.25651451572712e-005°)
3.16227766016837e+000	(-6.80440526358172e-004dB,-1.28578249864264e-005°)
3.23593656929628e+000	(-6.80440526058243e-004dB,-1.31573222045831e-005°)
3.31131121482591e+000	(-6.80440525749634e-004dB,-1.34637956091306e-005°)
3.38844156139202e+000	(-6.80440525417879e-004dB,-1.37774076963242e-005°)
3.46736850452531e+000	(-6.80440525074552e-004dB,-1.40983247474441e-005°)
3.54813389233575e+000	(-6.80440524713865e-004dB,-1.44267169169587e-005°)
3.63078054770101e+000	(-6.80440524335819e-004dB,-1.47627583227426e-005°)
3.71535229097172e+000	(-6.80440523943307e-004dB,-1.51066271383977e-005°)
3.80189396320560e+000	(-6.80440523528614e-004dB,-1.54585056877216e-005°)
3.89045144994280e+000	(-6.80440523095597e-004dB,-1.58185805413785e-005°)
3.98107170553496e+000	(-6.80440522643292e-004dB,-1.61870426158222e-005°)
4.07380277804112e+000	(-6.80440522165912e-004dB,-1.65640872745218e-005°)
4.16869383470335e+000	(-6.80440521669245e-004dB,-1.69499144315461e-005°)
4.26579518801592e+000	(-6.80440521148467e-004dB,-1.73447286575609e-005°)
4.36515832240165e+000	(-6.80440520605508e-004dB,-1.77487392882942e-005°)
4.46683592150962e+000	(-6.80440520034581e-004dB,-1.81621605355312e-005°)
4.57088189614874e+000	(-6.80440519438580e-004dB,-1.85852116006886e-005°)
4.67735141287197e+000	(-6.80440518812683e-004dB,-1.90181167910413e-005°)
4.78630092322637e+000	(-6.80440518156889e-004dB,-1.94611056386510e-005°)
4.89778819368445e+000	(-6.80440517470234e-004dB,-1.99144130220689e-005°)
5.01187233627271e+000	(-6.80440516749825e-004dB,-2.03782792908696e-005°)
5.12861383991364e+000	(-6.80440516001448e-004dB,-2.08529503930889e-005°)
5.24807460249771e+000	(-6.80440515213531e-004dB,-2.13386780056283e-005°)
5.37031796370252e+000	(-6.80440514388002e-004dB,-2.18357196676974e-005°)
5.49540873857623e+000	(-6.80440513523897e-004dB,-2.23443389173642e-005°)
5.62341325190348e+000	(-6.80440512621215e-004dB,-2.28648054312877e-005°)
5.75439937337156e+000	(-6.80440511674172e-004dB,-2.33973951677024e-005°)
5.88843655355588e+000	(-6.80440510682765e-004dB,-2.39423905127368e-005°)
6.02559586074356e+000	(-6.80440509642175e-004dB,-2.45000804301361e-005°)
6.16595001861481e+000	(-6.80440508556257e-004dB,-2.50707606144766e-005°)
6.30957344480192e+000	(-6.80440507419226e-004dB,-2.56547336479461e-005°)
6.45654229034654e+000	(-6.80440506225295e-004dB,-2.62523091607766e-005°)
6.60693448007594e+000	(-6.80440504979286e-004dB,-2.68638039954151e-005°)
6.76082975391980e+000	(-6.80440503669627e-004dB,-2.74895423745167e-005°)
6.91830970918935e+000	(-6.80440502302103e-004dB,-2.81298560728528e-005°)
7.07945784384136e+000	(-6.80440500868036e-004dB,-2.87850845932220e-005°)
7.24435960074988e+000	(-6.80440499368389e-004dB,-2.94555753464587e-005°)
7.41310241300916e+000	(-6.80440497797377e-004dB,-3.01416838356350e-005°)
7.58577575029182e+000	(-6.80440496151141e-004dB,-3.08437738445543e-005°)
7.76247116628690e+000	(-6.80440494424859e-004dB,-3.15622176306319e-005°)
7.94328234724279e+000	(-6.80440492626248e-004dB,-3.22973961222733e-005°)
8.12830516164097e+000	(-6.80440490736018e-004dB,-3.30496991208463e-005°)
8.31763771102669e+000	(-6.80440488755134e-004dB,-3.38195255073581e-005°)
8.51138038202374e+000	(-6.80440486683596e-004dB,-3.46072834539492e-005°)
8.70963589956078e+000	(-6.80440484516583e-004dB,-3.54133906403100e-005°)
8.91250938133743e+000	(-6.80440482244449e-004dB,-3.62382744751408e-005°)
9.12010839355907e+000	(-6.80440479864303e-004dB,-3.70823723227695e-005°)
9.33254300796988e+000	(-6.80440477375178e-004dB,-3.79461317350487e-005°)
9.54992586021433e+000	(-6.80440474767433e-004dB,-3.88300106886509e-005°)
9.77237220955808e+000	(-6.80440472038172e-004dB,-3.97344778278976e-005°)
9.99999999999997e+000	(-6.80440469178717e-004dB,-4.06600127132380e-005°)
1.02329299228075e+001	(-6.80440466182317e-004dB,-4.16071060755195e-005°)
1.04712854805090e+001	(-6.80440463048972e-004dB,-4.25762600761783e-005°)
1.07151930523760e+001	(-6.80440459761322e-004dB,-4.35679885734949e-005°)
1.09647819614318e+001	(-6.80440456328047e-004dB,-4.45828173950455e-005°)
1.12201845430196e+001	(-6.80440452724073e-004dB,-4.56212846165044e-005°)
1.14815362149688e+001	(-6.80440448958079e-004dB,-4.66839408469381e-005°)
1.17489755493953e+001	(-6.80440445007885e-004dB,-4.77713495207454e-005°)
1.20226443461741e+001	(-6.80440440875418e-004dB,-4.88840871964005e-005°)
1.23026877081238e+001	(-6.80440436550070e-004dB,-5.00227438621464e-005°)
1.25892541179416e+001	(-6.80440432016412e-004dB,-5.11879232488201e-005°)
1.28824955169313e+001	(-6.80440427269620e-004dB,-5.23802431499550e-005°)
1.31825673855640e+001	(-6.80440422301980e-004dB,-5.36003357493470e-005°)
1.34896288259165e+001	(-6.80440417099990e-004dB,-5.48488479562402e-005°)
1.38038426460288e+001	(-6.80440411648220e-004dB,-5.61264417483330e-005°)
1.41253754462275e+001	(-6.80440405944741e-004dB,-5.74337945227665e-005°)
1.44543977074592e+001	(-6.80440399967371e-004dB,-5.87715994552857e-005°)
1.47910838816820e+001	(-6.80440393711288e-004dB,-6.01405658677748e-005°)
1.51356124843620e+001	(-6.80440387162027e-004dB,-6.15414196043462e-005°)
1.54881661891248e+001	(-6.80440380304158e-004dB,-6.29749034161939e-005°)
1.58489319246111e+001	(-6.80440373121284e-004dB,-6.44417773554100e-005°)
1.62181009735892e+001	(-6.80440365604727e-004dB,-6.59428191779741e-005°)
1.65958690743755e+001	(-6.80440357723626e-004dB,-6.74788247561268e-005°)
1.69824365246174e+001	(-6.80440349477015e-004dB,-6.90506085003613e-005°)
1.73780082874937e+001	(-6.80440340837893e-004dB,-7.06590037912214e-005°)
1.77827941003892e+001	(-6.80440331800472e-004dB,-7.23048634211829e-005°)
1.81970085860998e+001	(-6.80440322328106e-004dB,-7.39890600468052e-005°)
1.86208713666286e+001	(-6.80440312415008e-004dB,-7.57124866514349e-005°)
1.90546071796324e+001	(-6.80440302032245e-004dB,-7.74760570186702e-005°)
1.94984459975804e+001	(-6.80440291161494e-004dB,-7.92807062168627e-005°)
1.99526231496887e+001	(-6.80440279774787e-004dB,-8.11273910949058e-005°)
2.04173794466952e+001	(-6.80440267853802e-004dB,-8.30170907895686e-005°)
2.08929613085403e+001	(-6.80440255374427e-004dB,-8.49508072446407e-005°)
2.13796208950222e+001	(-6.80440242303873e-004dB,-8.69295657421835e-005°)
2.18776162394954e+001	(-6.80440228617065e-004dB,-8.89544154461467e-005°)
2.23872113856833e+001	(-6.80440214285072e-004dB,-9.10264299586445e-005°)
2.29086765276776e+001	(-6.80440199279926e-004dB,-9.31467078892003e-005°)
2.34422881531991e+001	(-6.80440183561121e-004dB,-9.53163734372392e-005°)
2.39883291901948e+001	(-6.80440167109370e-004dB,-9.75365769881537e-005°)
2.45470891568502e+001	(-6.80440149879346e-004dB,-9.98084957232571e-005°)
2.51188643150957e+001	(-6.80440131836330e-004dB,-1.02133334243935e-004°)
2.57039578276885e+001	(-6.80440112943675e-004dB,-1.04512325210347e-004°)
2.63026799189537e+001	(-6.80440093160876e-004dB,-1.06946729994995e-004°)
2.69153480392690e+001	(-6.80440072444534e-004dB,-1.09437839351519e-004°)
2.75422870333815e+001	(-6.80440050758004e-004dB,-1.11986974099078e-004°)
2.81838293126444e+001	(-6.80440028040526e-004dB,-1.14595485822655e-004°)
2.88403150312659e+001	(-6.80440004256419e-004dB,-1.17264757589699e-004°)
2.95120922666637e+001	(-6.80439979348783e-004dB,-1.19996204683435e-004°)
3.01995172040200e+001	(-6.80439953270361e-004dB,-1.22791275353269e-004°)
3.09029543251358e+001	(-6.80439925966183e-004dB,-1.25651451582672e-004°)
3.16227766016837e+001	(-6.80439897368740e-004dB,-1.28578249874935e-004°)
3.23593656929627e+001	(-6.80439867427884e-004dB,-1.31573222057265e-004°)
3.31131121482590e+001	(-6.80439836070320e-004dB,-1.34637956103556e-004°)
3.38844156139201e+001	(-6.80439803240113e-004dB,-1.37774076976370e-004°)
3.46736850452530e+001	(-6.80439768859145e-004dB,-1.40983247488507e-004°)
3.54813389233574e+001	(-6.80439732862803e-004dB,-1.44267169184659e-004°)
3.63078054770100e+001	(-6.80439695168147e-004dB,-1.47627583243578e-004°)
3.71535229097171e+001	(-6.80439655697060e-004dB,-1.51066271401283e-004°)
3.80189396320559e+001	(-6.80439614360818e-004dB,-1.54585056895758e-004°)
3.89045144994279e+001	(-6.80439571081304e-004dB,-1.58185805433654e-004°)
3.98107170553495e+001	(-6.80439525761113e-004dB,-1.61870426179514e-004°)
4.07380277804111e+001	(-6.80439478305734e-004dB,-1.65640872768032e-004°)
4.16869383470333e+001	(-6.80439428612940e-004dB,-1.69499144339906e-004°)
4.26579518801591e+001	(-6.80439376578576e-004dB,-1.73447286601802e-004°)
4.36515832240164e+001	(-6.80439322089805e-004dB,-1.77487392911010e-004°)
4.46683592150961e+001	(-6.80439265038616e-004dB,-1.81621605385387e-004°)
4.57088189614873e+001	(-6.80439205291921e-004dB,-1.85852116039110e-004°)
4.67735141287196e+001	(-6.80439142730133e-004dB,-1.90181167944940e-004°)
4.78630092322636e+001	(-6.80439077229809e-004dB,-1.94611056423511e-004°)
4.89778819368444e+001	(-6.80439008629894e-004dB,-1.99144130260334e-004°)
5.01187233627270e+001	(-6.80438936803086e-004dB,-2.03782792951177e-004°)
5.12861383991362e+001	(-6.80438861590260e-004dB,-2.08529503976408e-004°)
5.24807460249770e+001	(-6.80438782831323e-004dB,-2.13386780105057e-004°)
5.37031796370250e+001	(-6.80438700361364e-004dB,-2.18357196729234e-004°)
5.49540873857622e+001	(-6.80438614006789e-004dB,-2.23443389229643e-004°)
5.62341325190346e+001	(-6.80438523581470e-004dB,-2.28648054372884e-004°)
5.75439937337154e+001	(-6.80438428891560e-004dB,-2.33973951741320e-004°)
5.88843655355586e+001	(-6.80438329745143e-004dB,-2.39423905196262e-004°)
6.02559586074355e+001	(-6.80438225923301e-004dB,-2.45000804375185e-004°)
6.16595001861479e+001	(-6.80438117208079e-004dB,-2.50707606223869e-004°)
6.30957344480190e+001	(-6.80438003370911e-004dB,-2.56547336564223e-004°)
6.45654229034652e+001	(-6.80437884167806e-004dB,-2.62523091698592e-004°)
6.60693448007593e+001	(-6.80437759341266e-004dB,-2.68638040051468e-004°)
6.76082975391978e+001	(-6.80437628634761e-004dB,-2.74895423849446e-004°)
6.91830970918933e+001	(-6.80437491766686e-004dB,-2.81298560840261e-004°)
7.07945784384134e+001	(-6.80437348455433e-004dB,-2.87850846051945e-004°)
7.24435960074986e+001	(-6.80437198386609e-004dB,-2.94555753592877e-004°)
7.41310241300914e+001	(-6.80437041246782e-004dB,-3.01416838493820e-004°)
7.58577575029180e+001	(-6.80436876697447e-004dB,-3.08437738592840e-004°)
7.76247116628688e+001	(-6.80436704393347e-004dB,-3.15622176464150e-004°)
7.94328234724277e+001	(-6.80436523970903e-004dB,-3.22973961391852e-004°)
8.12830516164095e+001	(-6.80436335043388e-004dB,-3.30496991389677e-004°)
8.31763771102667e+001	(-6.80436137214433e-004dB,-3.38195255267755e-004°)
8.51138038202372e+001	(-6.80435930062595e-004dB,-3.46072834747555e-004°)
8.70963589956076e+001	(-6.80435713144247e-004dB,-3.54133906626044e-004°)
8.91250938133741e+001	(-6.80435486008050e-004dB,-3.62382744990300e-004°)
9.12010839355905e+001	(-6.80435248163121e-004dB,-3.70823723483674e-004°)
9.33254300796986e+001	(-6.80434999108936e-004dB,-3.79461317624769e-004°)
9.54992586021431e+001	(-6.80434738319895e-004dB,-3.88300107180408e-004°)
9.77237220955805e+001	(-6.80434465236645e-004dB,-3.97344778593894e-004°)
9.99999999999995e+001	(-6.80434179286330e-004dB,-4.06600127469819e-004°)
1.02329299228075e+002	(-6.80433879858482e-004dB,-4.16071061116766e-004°)
1.04712854805089e+002	(-6.80433566318526e-004dB,-4.25762601149217e-004°)
1.07151930523760e+002	(-6.80433238002950e-004dB,-4.35679886150091e-004°)
1.09647819614318e+002	(-6.80432894213529e-004dB,-4.45828174395289e-004°)
1.12201845430196e+002	(-6.80432534221172e-004dB,-4.56212846641694e-004°)
1.14815362149688e+002	(-6.80432157265931e-004dB,-4.66839408980114e-004°)
1.17489755493952e+002	(-6.80431762542529e-004dB,-4.77713495754720e-004°)
1.20226443461741e+002	(-6.80431349219650e-004dB,-4.88840872550410e-004°)
1.23026877081237e+002	(-6.80430916412937e-004dB,-5.00227439249807e-004°)
1.25892541179416e+002	(-6.80430463210065e-004dB,-5.11879233161486e-004°)
1.28824955169313e+002	(-6.80429988649524e-004dB,-5.23802432220991e-004°)
1.31825673855640e+002	(-6.80429491724477e-004dB,-5.36003358266499e-004°)
1.34896288259165e+002	(-6.80428971380832e-004dB,-5.48488480390720e-004°)
1.38038426460288e+002	(-6.80428426511453e-004dB,-5.61264418370891e-004°)
1.41253754462275e+002	(-6.80427855961952e-004dB,-5.74337946178702e-004°)
1.44543977074592e+002	(-6.80427258526823e-004dB,-5.87715995571911e-004°)
1.47910838816820e+002	(-6.80426632934019e-004dB,-6.01405659769687e-004°)
1.51356124843620e+002	(-6.80425977858452e-004dB,-6.15414197213498e-004°)
1.54881661891247e+002	(-6.80425291905592e-004dB,-6.29749035415657e-004°)
1.58489319246110e+002	(-6.80424573628838e-004dB,-6.44417774897477e-004°)
1.62181009735892e+002	(-6.80423821501537e-004dB,-6.59428193219184e-004°)
1.65958690743755e+002	(-6.80423033924711e-004dB,-6.74788249103665e-004°)
1.69824365246173e+002	(-6.80422209229942e-004dB,-6.90506086656317e-004°)
1.73780082874936e+002	(-6.80421345674553e-004dB,-7.06590039683131e-004°)
1.77827941003891e+002	(-6.80420441420393e-004dB,-7.23048636109397e-004°)
1.81970085860997e+002	(-6.80419494543478e-004dB,-7.39890602501334e-004°)
1.86208713666286e+002	(-6.80418503046528e-004dB,-7.57124868693051e-004°)
1.90546071796323e+002	(-6.80417464818467e-004dB,-7.74760572521213e-004°)
1.94984459975803e+002	(-6.80416377663347e-004dB,-7.92807064670108e-004°)
1.99526231496887e+002	(-6.80415239274318e-004dB,-8.11273913629457e-004°)
2.04173794466952e+002	(-6.80414047227834e-004dB,-8.30170910767776e-004°)
2.08929613085403e+002	(-6.80412799004875e-004dB,-8.49508075523905e-004°)
2.13796208950222e+002	(-6.80411491954297e-004dB,-8.69295660719431e-004°)
2.18776162394954e+002	(-6.80410123307299e-004dB,-8.89544157994899e-004°)
2.23872113856832e+002	(-6.80408690157170e-004dB,-9.10264303372593e-004°)
2.29086765276776e+002	(-6.80407189460255e-004dB,-9.31467082948935e-004°)
2.34422881531991e+002	(-6.80405618044632e-004dB,-9.53163738719468e-004°)
2.39883291901947e+002	(-6.80403972567679e-004dB,-9.75365774539515e-004°)
2.45470891568501e+002	(-6.80402249538259e-004dB,-9.98084962223683e-004°)
2.51188643150956e+002	(-6.80400445307071e-004dB,-1.02133334778743e-003°)
2.57039578276885e+002	(-6.80398556047362e-004dB,-1.04512325783404e-003°)
2.63026799189536e+002	(-6.80396577747218e-004dB,-1.06946730609036e-003°)
2.69153480392690e+002	(-6.80394506215342e-004dB,-1.09437840009476e-003°)
2.75422870333815e+002	(-6.80392337049235e-004dB,-1.11986974804090e-003°)
2.81838293126443e+002	(-6.80390065662196e-004dB,-1.14595486578092e-003°)
2.88403150312659e+002	(-6.80387687222565e-004dB,-1.17264758399163e-003°)
2.95120922666637e+002	(-6.80385196696161e-004dB,-1.19996205550792e-003°)
3.01995172040200e+002	(-6.80382588784552e-004dB,-1.22791276282657e-003°)
3.09029543251357e+002	(-6.80379857972318e-004dB,-1.25651452578528e-003°)
3.16227766016836e+002	(-6.80376998458574e-004dB,-1.28578250942016e-003°)
3.23593656929626e+002	(-6.80374004183013e-004dB,-1.31573223200664e-003°)
3.31131121482589e+002	(-6.80370868790219e-004dB,-1.34637957328729e-003°)
3.38844156139200e+002	(-6.80367585629669e-004dB,-1.37774078289166e-003°)
3.46736850452529e+002	(-6.80364147740302e-004dB,-1.40983248895195e-003°)
3.54813389233573e+002	(-6.80360547827373e-004dB,-1.44267170691950e-003°)
3.63078054770099e+002	(-6.80356778258599e-004dB,-1.47627584858670e-003°)
3.71535229097170e+002	(-6.80352831029433e-004dB,-1.51066273131885e-003°)
3.80189396320558e+002	(-6.80348697776574e-004dB,-1.54585058750133e-003°)
3.89045144994278e+002	(-6.80344369730706e-004dB,-1.58185807420652e-003°)
3.98107170553494e+002	(-6.80339837705889e-004dB,-1.61870428308619e-003°)
4.07380277804110e+002	(-6.80335092095706e-004dB,-1.65640875049411e-003°)
4.16869383470332e+002	(-6.80330122836612e-004dB,-1.69499146784448e-003°)
4.26579518801589e+002	(-6.80324919376110e-004dB,-1.73447289221173e-003°)
4.36515832240163e+002	(-6.80319470692038e-004dB,-1.77487395717720e-003°)
4.46683592150960e+002	(-6.80313765210596e-004dB,-1.81621608392827e-003°)
4.57088189614872e+002	(-6.80307790843958e-004dB,-1.85852119261644e-003°)
4.67735141287195e+002	(-6.80301534912154e-004dB,-1.90181171397947e-003°)
4.78630092322635e+002	(-6.80294984149821e-004dB,-1.94611060123472e-003°)
4.89778819368443e+002	(-6.80288124656054e-004dB,-1.99144134224917e-003°)
5.01187233627268e+002	(-6.80280941881871e-004dB,-2.03782797199302e-003°)
5.12861383991361e+002	(-6.80273420601279e-004dB,-2.08529508528357e-003°)
5.24807460249769e+002	(-6.80265544851479e-004dB,-2.13386784982560e-003°)
