Freq.	V(vout)
1.00000000000000e+000	(-6.80440532488882e-004dB,-1.08133929785019e-005°)
1.02329299228075e+000	(-6.80440532479238e-004dB,-1.10652692576788e-005°)
1.04712854805090e+000	(-6.80440532464772e-004dB,-1.13230124890823e-005°)
1.07151930523761e+000	(-6.80440532454163e-004dB,-1.15867593315853e-005°)
1.09647819614318e+000	(-6.80440532442591e-004dB,-1.18566496272547e-005°)
1.12201845430196e+000	(-6.80440532431982e-004dB,-1.21328264754979e-005°)
1.14815362149688e+000	(-6.80440532417516e-004dB,-1.24154363089352e-005°)
1.17489755493953e+000	(-6.80440532404015e-004dB,-1.27046289710413e-005°)
1.20226443461741e+000	(-6.80440532389549e-004dB,-1.30005577955935e-005°)
1.23026877081238e+000	(-6.80440532372189e-004dB,-1.33033796879716e-005°)
1.25892541179417e+000	(-6.80440532357723e-004dB,-1.36132552083513e-005°)
1.28824955169313e+000	(-6.80440532341328e-004dB,-1.39303486568352e-005°)
1.31825673855641e+000	(-6.80440532325898e-004dB,-1.42548281605669e-005°)
1.34896288259165e+000	(-6.80440532305645e-004dB,-1.45868657628742e-005°)
1.38038426460288e+000	(-6.80440532282500e-004dB,-1.49266375144890e-005°)
1.41253754462275e+000	(-6.80440532262247e-004dB,-1.52743235668914e-005°)
1.44543977074593e+000	(-6.80440532245852e-004dB,-1.56301082678286e-005°)
1.47910838816821e+000	(-6.80440532223671e-004dB,-1.59941802590581e-005°)
1.51356124843621e+000	(-6.80440532197632e-004dB,-1.63667325763691e-005°)
1.54881661891248e+000	(-6.80440532173522e-004dB,-1.67479627519313e-005°)
1.58489319246111e+000	(-6.80440532151341e-004dB,-1.71380729190301e-005°)
1.62181009735893e+000	(-6.80440532124338e-004dB,-1.75372699192398e-005°)
1.65958690743756e+000	(-6.80440532094441e-004dB,-1.79457654120937e-005°)
1.69824365246174e+000	(-6.80440532067438e-004dB,-1.83637759873094e-005°)
1.73780082874937e+000	(-6.80440532037541e-004dB,-1.87915232796270e-005°)
1.77827941003892e+000	(-6.80440532004752e-004dB,-1.92292340863224e-005°)
1.81970085860998e+000	(-6.80440531972926e-004dB,-1.96771404874596e-005°)
1.86208713666287e+000	(-6.80440531937243e-004dB,-2.01354799689407e-005°)
1.90546071796325e+000	(-6.80440531898667e-004dB,-2.06044955484259e-005°)
1.94984459975804e+000	(-6.80440531860091e-004dB,-2.10844359041836e-005°)
1.99526231496888e+000	(-6.80440531819586e-004dB,-2.15755555069431e-005°)
2.04173794466953e+000	(-6.80440531777153e-004dB,-2.20781147548186e-005°)
2.08929613085404e+000	(-6.80440531735683e-004dB,-2.25923801113755e-005°)
2.13796208950223e+000	(-6.80440531689392e-004dB,-2.31186242469129e-005°)
2.18776162394955e+000	(-6.80440531641172e-004dB,-2.36571261830370e-005°)
2.23872113856834e+000	(-6.80440531591023e-004dB,-2.42081714406024e-005°)
2.29086765276777e+000	(-6.80440531540874e-004dB,-2.47720521910987e-005°)
2.34422881531992e+000	(-6.80440531483974e-004dB,-2.53490674115633e-005°)
2.39883291901949e+000	(-6.80440531426110e-004dB,-2.59395230431040e-005°)
2.45470891568503e+000	(-6.80440531366317e-004dB,-2.65437321531123e-005°)
2.51188643150958e+000	(-6.80440531301702e-004dB,-2.71620151012558e-005°)
2.57039578276886e+000	(-6.80440531235158e-004dB,-2.77946997093377e-005°)
2.63026799189538e+000	(-6.80440531163792e-004dB,-2.84421214351117e-005°)
2.69153480392691e+000	(-6.80440531093391e-004dB,-2.91046235501465e-005°)
2.75422870333816e+000	(-6.80440531017203e-004dB,-2.97825573218327e-005°)
2.81838293126445e+000	(-6.80440530937157e-004dB,-3.04762821996294e-005°)
2.88403150312660e+000	(-6.80440530851326e-004dB,-3.11861660056495e-005°)
2.95120922666638e+000	(-6.80440530765494e-004dB,-3.19125851296834e-005°)
3.01995172040201e+000	(-6.80440530672911e-004dB,-3.26559247287657e-005°)
3.09029543251359e+000	(-6.80440530575506e-004dB,-3.34165789313913e-005°)
3.16227766016837e+000	(-6.80440530474244e-004dB,-3.41949510464869e-005°)
3.23593656929628e+000	(-6.80440530372017e-004dB,-3.49914537772507e-005°)
3.31131121482591e+000	(-6.80440530263040e-004dB,-3.58065094399738e-005°)
3.38844156139202e+000	(-6.80440530143454e-004dB,-3.66405501879565e-005°)
3.46736850452531e+000	(-6.80440530023868e-004dB,-3.74940182406438e-005°)
3.54813389233575e+000	(-6.80440529899460e-004dB,-3.83673661180942e-005°)
3.63078054770101e+000	(-6.80440529765408e-004dB,-3.92610568809118e-005°)
3.71535229097172e+000	(-6.80440529625569e-004dB,-4.01755643757690e-005°)
3.80189396320560e+000	(-6.80440529481873e-004dB,-4.11113734866443e-005°)
3.89045144994280e+000	(-6.80440529328533e-004dB,-4.20689803919151e-005°)
3.98107170553496e+000	(-6.80440529168442e-004dB,-4.30488928274380e-005°)
4.07380277804112e+000	(-6.80440529002565e-004dB,-4.40516303557571e-005°)
4.16869383470335e+000	(-6.80440528827044e-004dB,-4.50777246415825e-005°)
4.26579518801592e+000	(-6.80440528642843e-004dB,-4.61277197336865e-005°)
4.36515832240165e+000	(-6.80440528452855e-004dB,-4.72021723533654e-005°)
4.46683592150962e+000	(-6.80440528250331e-004dB,-4.83016521896199e-005°)
4.57088189614874e+000	(-6.80440528041055e-004dB,-4.94267422012127e-005°)
4.67735141287197e+000	(-6.80440527824065e-004dB,-5.05780389257602e-005°)
4.78630092322637e+000	(-6.80440527590679e-004dB,-5.17561527960246e-005°)
4.89778819368445e+000	(-6.80440527347650e-004dB,-5.29617084635745e-005°)
5.01187233627271e+000	(-6.80440527095940e-004dB,-5.41953451299820e-005°)
5.12861383991364e+000	(-6.80440526831694e-004dB,-5.54577168857363e-005°)
5.24807460249771e+000	(-6.80440526554910e-004dB,-5.67494930570526e-005°)
5.37031796370252e+000	(-6.80440526263661e-004dB,-5.80713585607547e-005°)
5.49540873857623e+000	(-6.80440525959874e-004dB,-5.94240142674297e-005°)
5.62341325190348e+000	(-6.80440525643549e-004dB,-6.08081773730381e-005°)
5.75439937337156e+000	(-6.80440525311795e-004dB,-6.22245817791796e-005°)
5.88843655355588e+000	(-6.80440524963645e-004dB,-6.36739784822188e-005°)
6.02559586074356e+000	(-6.80440524593314e-004dB,-6.51571359714721e-005°)
6.16595001861481e+000	(-6.80440524214304e-004dB,-6.66748406366728e-005°)
6.30957344480192e+000	(-6.80440523814077e-004dB,-6.82278971849228e-005°)
6.45654229034654e+000	(-6.80440523395526e-004dB,-6.98171290673618e-005°)
6.60693448007594e+000	(-6.80440522952865e-004dB,-7.14433789157687e-005°)
6.76082975391980e+000	(-6.80440522492845e-004dB,-7.31075089893399e-005°)
6.91830970918935e+000	(-6.80440522012572e-004dB,-7.48104016318669e-005°)
7.07945784384136e+000	(-6.80440521508189e-004dB,-7.65529597395694e-005°)
7.24435960074988e+000	(-6.80440520979696e-004dB,-7.83361072398213e-005°)
7.41310241300916e+000	(-6.80440520428058e-004dB,-8.01607895810299e-005°)
7.58577575029182e+000	(-6.80440519848452e-004dB,-8.20279742339247e-005°)
7.76247116628690e+000	(-6.80440519242807e-004dB,-8.39386512045235e-005°)
7.94328234724279e+000	(-6.80440518604372e-004dB,-8.58938335590467e-005°)
8.12830516164097e+000	(-6.80440517941827e-004dB,-8.78945579610584e-005°)
8.31763771102669e+000	(-6.80440517246492e-004dB,-8.99418852211192e-005°)
8.51138038202374e+000	(-6.80440516519332e-004dB,-9.20369008592416e-005°)
8.70963589956078e+000	(-6.80440515754561e-004dB,-9.41807156804471e-005°)
8.91250938133743e+000	(-6.80440514954106e-004dB,-9.63744663637303e-005°)
9.12010839355907e+000	(-6.80440514118933e-004dB,-9.86193160647411e-005°)
9.33254300796988e+000	(-6.80440513243255e-004dB,-1.00916455032504e-004°)
9.54992586021433e+000	(-6.80440512324179e-004dB,-1.03267101240507e-004°)
9.77237220955808e+000	(-6.80440511363634e-004dB,-1.05672501032483e-004°)
9.99999999999997e+000	(-6.80440510356797e-004dB,-1.08133929783239e-004°)
1.02329299228075e+001	(-6.80440509301740e-004dB,-1.10652692574881e-004°)
1.04712854805090e+001	(-6.80440508199428e-004dB,-1.13230124888780e-004°)
1.07151930523760e+001	(-6.80440507046966e-004dB,-1.15867593313664e-004°)
1.09647819614318e+001	(-6.80440505835676e-004dB,-1.18566496270202e-004°)
1.12201845430196e+001	(-6.80440504568450e-004dB,-1.21328264752465e-004°)
1.14815362149688e+001	(-6.80440503241432e-004dB,-1.24154363086659e-004°)
1.17489755493953e+001	(-6.80440501854620e-004dB,-1.27046289707528e-004°)
1.20226443461741e+001	(-6.80440500401265e-004dB,-1.30005577952843e-004°)
1.23026877081238e+001	(-6.80440498879437e-004dB,-1.33033796876403e-004°)
1.25892541179416e+001	(-6.80440497280457e-004dB,-1.36132552079963e-004°)
1.28824955169313e+001	(-6.80440495613968e-004dB,-1.39303486564548e-004°)
1.31825673855640e+001	(-6.80440493864541e-004dB,-1.42548281601593e-004°)
1.34896288259165e+001	(-6.80440492033140e-004dB,-1.45868657624375e-004°)
1.38038426460288e+001	(-6.80440490117835e-004dB,-1.49266375140211e-004°)
1.41253754462275e+001	(-6.80440488107055e-004dB,-1.52743235663900e-004°)
1.44543977074592e+001	(-6.80440486005621e-004dB,-1.56301082672913e-004°)
1.47910838816820e+001	(-6.80440483801960e-004dB,-1.59941802584824e-004°)
1.51356124843620e+001	(-6.80440481500895e-004dB,-1.63667325757522e-004°)
1.54881661891248e+001	(-6.80440479084101e-004dB,-1.67479627512703e-004°)
1.58489319246111e+001	(-6.80440476563151e-004dB,-1.71380729183219e-004°)
1.62181009735892e+001	(-6.80440473915865e-004dB,-1.75372699184809e-004°)
1.65958690743755e+001	(-6.80440471144171e-004dB,-1.79457654112806e-004°)
1.69824365246174e+001	(-6.80440468238424e-004dB,-1.83637759864381e-004°)
1.73780082874937e+001	(-6.80440465202484e-004dB,-1.87915232786933e-004°)
1.77827941003892e+001	(-6.80440462020918e-004dB,-1.92292340853220e-004°)
1.81970085860998e+001	(-6.80440458689870e-004dB,-1.96771404863875e-004°)
1.86208713666286e+001	(-6.80440455197767e-004dB,-2.01354799677920e-004°)
1.90546071796324e+001	(-6.80440451545573e-004dB,-2.06044955471951e-004°)
1.94984459975804e+001	(-6.80440447721715e-004dB,-2.10844359028647e-004°)
1.99526231496887e+001	(-6.80440443717513e-004dB,-2.15755555055300e-004°)
2.04173794466952e+001	(-6.80440439521396e-004dB,-2.20781147533046e-004°)
2.08929613085403e+001	(-6.80440435131433e-004dB,-2.25923801097531e-004°)
2.13796208950222e+001	(-6.80440430533160e-004dB,-2.31186242451744e-004°)
2.18776162394954e+001	(-6.80440425715967e-004dB,-2.36571261811742e-004°)
2.23872113856833e+001	(-6.80440420672139e-004dB,-2.42081714386064e-004°)
2.29086765276776e+001	(-6.80440415392997e-004dB,-2.47720521889597e-004°)
2.34422881531991e+001	(-6.80440409866968e-004dB,-2.53490674092715e-004°)
2.39883291901948e+001	(-6.80440404071870e-004dB,-2.59395230406482e-004°)
2.45470891568502e+001	(-6.80440398013490e-004dB,-2.65437321504809e-004°)
2.51188643150957e+001	(-6.80440391661932e-004dB,-2.71620150984363e-004°)
2.57039578276885e+001	(-6.80440385016231e-004dB,-2.77946997063166e-004°)
2.63026799189537e+001	(-6.80440378056134e-004dB,-2.84421214318745e-004°)
2.69153480392690e+001	(-6.80440370771034e-004dB,-2.91046235466778e-004°)
2.75422870333815e+001	(-6.80440363131997e-004dB,-2.97825573181158e-004°)
2.81838293126444e+001	(-6.80440355142883e-004dB,-3.04762821956467e-004°)
2.88403150312659e+001	(-6.80440346773794e-004dB,-3.11861660013820e-004°)
2.95120922666637e+001	(-6.80440338011228e-004dB,-3.19125851251106e-004°)
3.01995172040200e+001	(-6.80440328836862e-004dB,-3.26559247238660e-004°)
3.09029543251358e+001	(-6.80440319225622e-004dB,-3.34165789261412e-004°)
3.16227766016837e+001	(-6.80440309167862e-004dB,-3.41949510408614e-004°)
3.23593656929627e+001	(-6.80440298629831e-004dB,-3.49914537712228e-004°)
3.31131121482590e+001	(-6.80440287599953e-004dB,-3.58065094335147e-004°)
3.38844156139201e+001	(-6.80440276046405e-004dB,-3.66405501810356e-004°)
3.46736850452530e+001	(-6.80440263948934e-004dB,-3.74940182332278e-004°)
3.54813389233574e+001	(-6.80440251281501e-004dB,-3.83673661101475e-004°)
3.63078054770100e+001	(-6.80440238019995e-004dB,-3.92610568723971e-004°)
3.71535229097171e+001	(-6.80440224127769e-004dB,-4.01755643666452e-004°)
3.80189396320559e+001	(-6.80440209586501e-004dB,-4.11113734768679e-004°)
3.89045144994279e+001	(-6.80440194358577e-004dB,-4.20689803814396e-004°)
3.98107170553495e+001	(-6.80440178413138e-004dB,-4.30488928162134e-004°)
4.07380277804111e+001	(-6.80440161718357e-004dB,-4.40516303437298e-004°)
4.16869383470333e+001	(-6.80440144233730e-004dB,-4.50777246286950e-004°)
4.26579518801591e+001	(-6.80440125924539e-004dB,-4.61277197198774e-004°)
4.36515832240164e+001	(-6.80440106755100e-004dB,-4.72021723385685e-004°)
4.46683592150961e+001	(-6.80440086678159e-004dB,-4.83016521737650e-004°)
4.57088189614873e+001	(-6.80440065656102e-004dB,-4.94267421842237e-004°)
4.67735141287196e+001	(-6.80440043646496e-004dB,-5.05780389075560e-004°)
4.78630092322636e+001	(-6.80440020597264e-004dB,-5.17561527765186e-004°)
4.89778819368444e+001	(-6.80439996461150e-004dB,-5.29617084426734e-004°)
5.01187233627270e+001	(-6.80439971189933e-004dB,-5.41953451075860e-004°)
5.12861383991362e+001	(-6.80439944726715e-004dB,-5.54577168617389e-004°)
5.24807460249770e+001	(-6.80439917017487e-004dB,-5.67494930313386e-004°)
5.37031796370250e+001	(-6.80439887996672e-004dB,-5.80713585332014e-004°)
5.49540873857622e+001	(-6.80439857612190e-004dB,-5.94240142379060e-004°)
5.62341325190346e+001	(-6.80439825793642e-004dB,-6.08081773414029e-004°)
5.75439937337154e+001	(-6.80439792480268e-004dB,-6.22245817452820e-004°)
5.88843655355586e+001	(-6.80439757592989e-004dB,-6.36739784458966e-004°)
6.02559586074355e+001	(-6.80439721063332e-004dB,-6.51571359325525e-004°)
6.16595001861479e+001	(-6.80439682812215e-004dB,-6.66748405949696e-004°)
6.30957344480190e+001	(-6.80439642756701e-004dB,-6.82278971402371e-004°)
6.45654229034652e+001	(-6.80439600815778e-004dB,-6.98171290194798e-004°)
6.60693448007593e+001	(-6.80439556894936e-004dB,-7.14433788644629e-004°)
6.76082975391978e+001	(-6.80439510906414e-004dB,-7.31075089343644e-004°)
6.91830970918933e+001	(-6.80439462750878e-004dB,-7.48104015729595e-004°)
7.07945784384134e+001	(-6.80439412329960e-004dB,-7.65529596764492e-004°)
7.24435960074986e+001	(-6.80439359521180e-004dB,-7.83361071721869e-004°)
7.41310241300914e+001	(-6.80439304231955e-004dB,-8.01607895085584e-004°)
7.58577575029180e+001	(-6.80439246334020e-004dB,-8.20279741562697e-004°)
7.76247116628688e+001	(-6.80439185712611e-004dB,-8.39386511213149e-004°)
7.94328234724277e+001	(-6.80439122227889e-004dB,-8.58938334698872e-004°)
8.12830516164095e+001	(-6.80439055754483e-004dB,-8.78945578655224e-004°)
8.31763771102667e+001	(-6.80438986148695e-004dB,-8.99418851187507e-004°)
8.51138038202372e+001	(-6.80438913257187e-004dB,-9.20369007495510e-004°)
8.70963589956076e+001	(-6.80438836934332e-004dB,-9.41807155629115e-004°)
8.91250938133741e+001	(-6.80438757016183e-004dB,-9.63744662377889e-004°)
9.12010839355905e+001	(-6.80438673332041e-004dB,-9.86193159297927e-004°)
9.33254300796986e+001	(-6.80438585703490e-004dB,-1.00916454887905e-003°)
9.54992586021431e+001	(-6.80438493939578e-004dB,-1.03267101085565e-003°)
9.77237220955805e+001	(-6.80438397860928e-004dB,-1.05672500866460e-003°)
9.99999999999995e+001	(-6.80438297244762e-004dB,-1.08133929605343e-003°)
1.02329299228075e+002	(-6.80438191890484e-004dB,-1.10652692384262e-003°)
1.04712854805089e+002	(-6.80438081573387e-004dB,-1.13230124684528e-003°)
1.07151930523760e+002	(-6.80437966051408e-004dB,-1.15867593094803e-003°)
1.09647819614318e+002	(-6.80437845090196e-004dB,-1.18566496035688e-003°)
1.12201845430196e+002	(-6.80437718426468e-004dB,-1.21328264501180e-003°)
1.14815362149688e+002	(-6.80437585794051e-004dB,-1.24154362817402e-003°)
1.17489755493952e+002	(-6.80437446911337e-004dB,-1.27046289419014e-003°)
1.20226443461741e+002	(-6.80437301481291e-004dB,-1.30005577643695e-003°)
1.23026877081237e+002	(-6.80437149196269e-004dB,-1.33033796545144e-003°)
1.25892541179416e+002	(-6.80436989736089e-004dB,-1.36132551725013e-003°)
1.28824955169313e+002	(-6.80436822763208e-004dB,-1.39303486184213e-003°)
1.31825673855640e+002	(-6.80436647921764e-004dB,-1.42548281194056e-003°)
1.34896288259165e+002	(-6.80436464836603e-004dB,-1.45868657187691e-003°)
1.38038426460288e+002	(-6.80436273120999e-004dB,-1.49266374672296e-003°)
1.41253754462275e+002	(-6.80436072372797e-004dB,-1.52743235162520e-003°)
1.44543977074592e+002	(-6.80435862162836e-004dB,-1.56301082135674e-003°)
1.47910838816820e+002	(-6.80435642048457e-004dB,-1.59941802009163e-003°)
1.51356124843620e+002	(-6.80435411559995e-004dB,-1.63667325140690e-003°)
1.54881661891247e+002	(-6.80435170203675e-004dB,-1.67479626851756e-003°)
1.58489319246110e+002	(-6.80434917478972e-004dB,-1.71380728475001e-003°)
1.62181009735892e+002	(-6.80434652839070e-004dB,-1.75372698425939e-003°)
1.65958690743755e+002	(-6.80434375735223e-004dB,-1.79457653299663e-003°)
1.69824365246173e+002	(-6.80434085561787e-004dB,-1.83637758993082e-003°)
1.73780082874936e+002	(-6.80433781717938e-004dB,-1.87915231853321e-003°)
1.77827941003891e+002	(-6.80433463553669e-004dB,-1.92292339852835e-003°)
1.81970085860997e+002	(-6.80433130394862e-004dB,-1.96771403791943e-003°)
1.86208713666286e+002	(-6.80432781531716e-004dB,-2.01354798529325e-003°)
1.90546071796323e+002	(-6.80432416232250e-004dB,-2.06044954241209e-003°)
1.94984459975803e+002	(-6.80432033714332e-004dB,-2.10844357709885e-003°)
1.99526231496887e+002	(-6.80431633172687e-004dB,-2.15755553642221e-003°)
2.04173794466952e+002	(-6.80431213742244e-004dB,-2.20781146018902e-003°)
2.08929613085403e+002	(-6.80430774553112e-004dB,-2.25923799475097e-003°)
2.13796208950222e+002	(-6.80430314665962e-004dB,-2.31186240713276e-003°)
2.18776162394954e+002	(-6.80429833103855e-004dB,-2.36571259948940e-003°)
2.23872113856832e+002	(-6.80429328847417e-004dB,-2.42081712390035e-003°)
2.29086765276776e+002	(-6.80428800827123e-004dB,-2.47720519750816e-003°)
2.34422881531991e+002	(-6.80428247921375e-004dB,-2.53490671800968e-003°)
2.39883291901947e+002	(-6.80427668951670e-004dB,-2.59395227950831e-003°)
2.45470891568501e+002	(-6.80427062705756e-004dB,-2.65437318873532e-003°)
2.51188643150956e+002	(-6.80426427884580e-004dB,-2.71620148164899e-003°)
2.57039578276885e+002	(-6.80425763143765e-004dB,-2.77946994042055e-003°)
2.63026799189536e+002	(-6.80425067075283e-004dB,-2.84421211081567e-003°)
2.69153480392690e+002	(-6.80424338202632e-004dB,-2.91046231998079e-003°)
2.75422870333815e+002	(-6.80423574976982e-004dB,-2.97825569464380e-003°)
2.81838293126443e+002	(-6.80422775781992e-004dB,-3.04762817973869e-003°)
2.88403150312659e+002	(-6.80421938923208e-004dB,-3.11861655746389e-003°)
2.95120922666637e+002	(-6.80421062626127e-004dB,-3.19125846678472e-003°)
3.01995172040200e+002	(-6.80420145028487e-004dB,-3.26559242338993e-003°)
3.09029543251357e+002	(-6.80419184186051e-004dB,-3.34165784011325e-003°)
3.16227766016836e+002	(-6.80418178062966e-004dB,-3.41949504783044e-003°)
3.23593656929626e+002	(-6.80417124518256e-004dB,-3.49914531684324e-003°)
3.31131121482589e+002	(-6.80416021322221e-004dB,-3.58065087876131e-003°)
3.38844156139200e+002	(-6.80414866133291e-004dB,-3.66405494889394e-003°)
3.46736850452529e+002	(-6.80413656508634e-004dB,-3.74940174916337e-003°)
3.54813389233573e+002	(-6.80412389874257e-004dB,-3.83673653155153e-003°)
3.63078054770099e+002	(-6.80411063538512e-004dB,-3.92610560209333e-003°)
3.71535229097170e+002	(-6.80409674698844e-004dB,-4.01755634542853e-003°)
3.80189396320558e+002	(-6.80408220406108e-004dB,-4.11113724992570e-003°)
3.89045144994278e+002	(-6.80406697569393e-004dB,-4.20689793339105e-003°)
3.98107170553494e+002	(-6.80405102968557e-004dB,-4.30488916937658e-003°)
4.07380277804110e+002	(-6.80403433218545e-004dB,-4.40516291410057e-003°)
4.16869383470332e+002	(-6.80401684769391e-004dB,-4.50777233399528e-003°)
4.26579518801589e+002	(-6.80399853922608e-004dB,-4.61277183389652e-003°)
4.36515832240163e+002	(-6.80397936788760e-004dB,-4.72021708588951e-003°)
4.46683592150960e+002	(-6.80395929300959e-004dB,-4.83016505882662e-003°)
4.57088189614872e+002	(-6.80393827203294e-004dB,-4.94267404853313e-003°)
4.67735141287195e+002	(-6.80391626039259e-004dB,-5.05780370871602e-003°)
4.78630092322635e+002	(-6.80389321139216e-004dB,-5.17561508259298e-003°)
4.89778819368443e+002	(-6.80386907608818e-004dB,-5.29617063525801e-003°)
5.01187233627268e+002	(-6.80384380332873e-004dB,-5.41953428680109e-003°)
5.12861383991361e+002	(-6.80381733949299e-004dB,-5.54577144619910e-003°)
5.24807460249769e+002	(-6.80378962845272e-004dB,-5.67494904599627e-003°)
