v1	V(n005)	I(I1)	I(I2)	I(Ib)
3.600000000000000e+00	2.611396e+00	8.092081e-12	9.821237e-08	9.819113e-08
3.601000000000000e+00	2.611396e+00	8.106730e-12	9.821235e-08	9.819113e-08
3.602000000000000e+00	2.611396e+00	8.121850e-12	9.821234e-08	9.819113e-08
3.603000000000000e+00	2.611396e+00	8.137457e-12	9.821233e-08	9.819113e-08
3.604000000000000e+00	2.611396e+00	8.153564e-12	9.821231e-08	9.819113e-08
3.605000000000000e+00	2.611396e+00	8.170188e-12	9.821229e-08	9.819113e-08
3.605999999999999e+00	2.611396e+00	8.187347e-12	9.821228e-08	9.819113e-08
3.606999999999999e+00	2.611396e+00	8.205058e-12	9.821225e-08	9.819113e-08
3.607999999999999e+00	2.611396e+00	8.223335e-12	9.821224e-08	9.819113e-08
3.608999999999999e+00	2.611396e+00	8.242206e-12	9.821222e-08	9.819113e-08
3.609999999999999e+00	2.611396e+00	8.261677e-12	9.821220e-08	9.819113e-08
3.610999999999999e+00	2.611396e+00	8.281775e-12	9.821218e-08	9.819113e-08
3.611999999999999e+00	2.611396e+00	8.302521e-12	9.821216e-08	9.819113e-08
3.612999999999999e+00	2.611396e+00	8.323927e-12	9.821214e-08	9.819113e-08
3.613999999999999e+00	2.611396e+00	8.346027e-12	9.821211e-08	9.819113e-08
3.614999999999998e+00	2.611396e+00	8.368836e-12	9.821209e-08	9.819113e-08
3.615999999999998e+00	2.611396e+00	8.392379e-12	9.821207e-08	9.819113e-08
3.616999999999998e+00	2.611396e+00	8.416671e-12	9.821205e-08	9.819113e-08
3.617999999999998e+00	2.611396e+00	8.441753e-12	9.821202e-08	9.819113e-08
3.618999999999998e+00	2.611396e+00	8.467638e-12	9.821199e-08	9.819113e-08
3.619999999999998e+00	2.611396e+00	8.494352e-12	9.821197e-08	9.819113e-08
3.620999999999998e+00	2.611396e+00	8.521923e-12	9.821194e-08	9.819113e-08
3.621999999999998e+00	2.611396e+00	8.550383e-12	9.821191e-08	9.819113e-08
3.622999999999998e+00	2.611397e+00	8.579761e-12	9.821188e-08	9.819113e-08
3.623999999999997e+00	2.611397e+00	8.610082e-12	9.821185e-08	9.819113e-08
3.624999999999997e+00	2.611397e+00	8.641372e-12	9.821182e-08	9.819113e-08
3.625999999999997e+00	2.611397e+00	8.673670e-12	9.821179e-08	9.819113e-08
3.626999999999997e+00	2.611397e+00	8.707004e-12	9.821176e-08	9.819113e-08
3.627999999999997e+00	2.611397e+00	8.741418e-12	9.821172e-08	9.819113e-08
3.628999999999997e+00	2.611397e+00	8.776932e-12	9.821169e-08	9.819113e-08
3.629999999999997e+00	2.611397e+00	8.813584e-12	9.821165e-08	9.819113e-08
3.630999999999997e+00	2.611397e+00	8.851414e-12	9.821161e-08	9.819113e-08
3.631999999999997e+00	2.611397e+00	8.890470e-12	9.821157e-08	9.819113e-08
3.632999999999996e+00	2.611397e+00	8.930774e-12	9.821153e-08	9.819113e-08
3.633999999999996e+00	2.611397e+00	8.972372e-12	9.821149e-08	9.819113e-08
3.634999999999996e+00	2.611397e+00	9.015312e-12	9.821144e-08	9.819113e-08
3.635999999999996e+00	2.611397e+00	9.059627e-12	9.821140e-08	9.819113e-08
3.636999999999996e+00	2.611397e+00	9.105371e-12	9.821136e-08	9.819113e-08
3.637999999999996e+00	2.611397e+00	9.152581e-12	9.821131e-08	9.819113e-08
3.638999999999996e+00	2.611397e+00	9.201309e-12	9.821126e-08	9.819113e-08
3.639999999999996e+00	2.611397e+00	9.251610e-12	9.821121e-08	9.819113e-08
3.640999999999996e+00	2.611397e+00	9.303522e-12	9.821116e-08	9.819113e-08
3.641999999999995e+00	2.611397e+00	9.357105e-12	9.821110e-08	9.819113e-08
3.642999999999995e+00	2.611397e+00	9.412412e-12	9.821105e-08	9.819113e-08
3.643999999999995e+00	2.611397e+00	9.469496e-12	9.821099e-08	9.819113e-08
3.644999999999995e+00	2.611397e+00	9.528414e-12	9.821093e-08	9.819113e-08
3.645999999999995e+00	2.611397e+00	9.589230e-12	9.821088e-08	9.819113e-08
3.646999999999995e+00	2.611397e+00	9.651998e-12	9.821081e-08	9.819113e-08
3.647999999999995e+00	2.611397e+00	9.716782e-12	9.821075e-08	9.819113e-08
3.648999999999995e+00	2.611397e+00	9.783653e-12	9.821068e-08	9.819113e-08
3.649999999999995e+00	2.611397e+00	9.852679e-12	9.821061e-08	9.819113e-08
3.650999999999994e+00	2.611397e+00	9.923917e-12	9.821054e-08	9.819113e-08
3.651999999999994e+00	2.611397e+00	9.997445e-12	9.821046e-08	9.819114e-08
3.652999999999994e+00	2.611397e+00	1.007334e-11	9.821039e-08	9.819114e-08
3.653999999999994e+00	2.611397e+00	1.015168e-11	9.821031e-08	9.819114e-08
3.654999999999994e+00	2.611397e+00	1.023254e-11	9.821023e-08	9.819114e-08
3.655999999999994e+00	2.611397e+00	1.031599e-11	9.821014e-08	9.819114e-08
3.656999999999994e+00	2.611397e+00	1.040213e-11	9.821006e-08	9.819114e-08
3.657999999999994e+00	2.611397e+00	1.049104e-11	9.820997e-08	9.819114e-08
3.658999999999994e+00	2.611397e+00	1.058281e-11	9.820988e-08	9.819114e-08
3.659999999999993e+00	2.611397e+00	1.067753e-11	9.820979e-08	9.819114e-08
3.660999999999993e+00	2.611397e+00	1.077530e-11	9.820969e-08	9.819114e-08
3.661999999999993e+00	2.611397e+00	1.087621e-11	9.820959e-08	9.819114e-08
3.662999999999993e+00	2.611397e+00	1.098037e-11	9.820948e-08	9.819114e-08
3.663999999999993e+00	2.611397e+00	1.108788e-11	9.820938e-08	9.819114e-08
3.664999999999993e+00	2.611397e+00	1.119884e-11	9.820926e-08	9.819114e-08
3.665999999999993e+00	2.611398e+00	1.131338e-11	9.820915e-08	9.819114e-08
3.666999999999993e+00	2.611398e+00	1.143160e-11	9.820904e-08	9.819114e-08
3.667999999999993e+00	2.611398e+00	1.155362e-11	9.820891e-08	9.819114e-08
3.668999999999992e+00	2.611398e+00	1.167957e-11	9.820879e-08	9.819114e-08
3.669999999999992e+00	2.611398e+00	1.180957e-11	9.820865e-08	9.819114e-08
3.670999999999992e+00	2.611398e+00	1.194376e-11	9.820852e-08	9.819114e-08
3.671999999999992e+00	2.611398e+00	1.208225e-11	9.820838e-08	9.819114e-08
3.672999999999992e+00	2.611398e+00	1.222521e-11	9.820824e-08	9.819114e-08
3.673999999999992e+00	2.611398e+00	1.237276e-11	9.820809e-08	9.819114e-08
3.674999999999992e+00	2.611398e+00	1.252506e-11	9.820794e-08	9.819114e-08
3.675999999999992e+00	2.611398e+00	1.268226e-11	9.820779e-08	9.819114e-08
3.676999999999992e+00	2.611398e+00	1.284452e-11	9.820762e-08	9.819114e-08
3.677999999999991e+00	2.611398e+00	1.301200e-11	9.820745e-08	9.819114e-08
3.678999999999991e+00	2.611398e+00	1.318487e-11	9.820728e-08	9.819114e-08
3.679999999999991e+00	2.611398e+00	1.336330e-11	9.820710e-08	9.819114e-08
3.680999999999991e+00	2.611398e+00	1.354748e-11	9.820692e-08	9.819114e-08
3.681999999999991e+00	2.611398e+00	1.373757e-11	9.820673e-08	9.819114e-08
3.682999999999991e+00	2.611398e+00	1.393378e-11	9.820653e-08	9.819114e-08
3.683999999999991e+00	2.611398e+00	1.413631e-11	9.820633e-08	9.819114e-08
3.684999999999991e+00	2.611398e+00	1.434536e-11	9.820612e-08	9.819114e-08
3.685999999999991e+00	2.611399e+00	1.456113e-11	9.820591e-08	9.819114e-08
3.686999999999991e+00	2.611399e+00	1.478385e-11	9.820568e-08	9.819114e-08
3.687999999999990e+00	2.611399e+00	1.501372e-11	9.820545e-08	9.819114e-08
3.688999999999990e+00	2.611399e+00	1.525101e-11	9.820522e-08	9.819114e-08
3.689999999999990e+00	2.611399e+00	1.549592e-11	9.820497e-08	9.819114e-08
3.690999999999990e+00	2.611399e+00	1.574872e-11	9.820472e-08	9.819114e-08
3.691999999999990e+00	2.611399e+00	1.600965e-11	9.820446e-08	9.819114e-08
3.692999999999990e+00	2.611399e+00	1.627898e-11	9.820419e-08	9.819114e-08
3.693999999999990e+00	2.611399e+00	1.655698e-11	9.820391e-08	9.819114e-08
3.694999999999990e+00	2.611399e+00	1.684393e-11	9.820363e-08	9.819114e-08
3.695999999999990e+00	2.611399e+00	1.714011e-11	9.820333e-08	9.819114e-08
3.696999999999989e+00	2.611400e+00	1.744582e-11	9.820302e-08	9.819114e-08
3.697999999999989e+00	2.611400e+00	1.776137e-11	9.820271e-08	9.819114e-08
3.698999999999989e+00	2.611400e+00	1.808708e-11	9.820238e-08	9.819114e-08
3.699999999999989e+00	2.611400e+00	1.842327e-11	9.820204e-08	9.819114e-08
3.700999999999989e+00	2.611400e+00	1.877028e-11	9.820170e-08	9.819114e-08
3.701999999999989e+00	2.611400e+00	1.912846e-11	9.820134e-08	9.819114e-08
3.702999999999989e+00	2.611400e+00	1.949817e-11	9.820097e-08	9.819114e-08
3.703999999999989e+00	2.611401e+00	1.987978e-11	9.820059e-08	9.819114e-08
3.704999999999989e+00	2.611401e+00	2.027367e-11	9.820020e-08	9.819114e-08
3.705999999999988e+00	2.611401e+00	2.068024e-11	9.819979e-08	9.819114e-08
3.706999999999988e+00	2.611401e+00	2.109990e-11	9.819937e-08	9.819114e-08
3.707999999999988e+00	2.611401e+00	2.153307e-11	9.819894e-08	9.819114e-08
3.708999999999988e+00	2.611401e+00	2.198017e-11	9.819849e-08	9.819114e-08
3.709999999999988e+00	2.611401e+00	2.244167e-11	9.819803e-08	9.819114e-08
3.710999999999988e+00	2.611402e+00	2.291803e-11	9.819755e-08	9.819114e-08
3.711999999999988e+00	2.611402e+00	2.340972e-11	9.819706e-08	9.819114e-08
3.712999999999988e+00	2.611402e+00	2.391723e-11	9.819656e-08	9.819114e-08
3.713999999999988e+00	2.611402e+00	2.444108e-11	9.819603e-08	9.819114e-08
3.714999999999987e+00	2.611402e+00	2.498180e-11	9.819549e-08	9.819114e-08
3.715999999999987e+00	2.611403e+00	2.553992e-11	9.819494e-08	9.819114e-08
3.716999999999987e+00	2.611403e+00	2.611601e-11	9.819436e-08	9.819115e-08
3.717999999999987e+00	2.611403e+00	2.671063e-11	9.819377e-08	9.819115e-08
3.718999999999987e+00	2.611403e+00	2.732440e-11	9.819315e-08	9.819115e-08
3.719999999999987e+00	2.611403e+00	2.795793e-11	9.819252e-08	9.819115e-08
3.720999999999987e+00	2.611404e+00	2.861186e-11	9.819187e-08	9.819115e-08
3.721999999999987e+00	2.611404e+00	2.928683e-11	9.819119e-08	9.819115e-08
3.722999999999987e+00	2.611404e+00	2.998353e-11	9.819050e-08	9.819115e-08
3.723999999999986e+00	2.611404e+00	3.070264e-11	9.818978e-08	9.819115e-08
3.724999999999986e+00	2.611405e+00	3.144492e-11	9.818903e-08	9.819115e-08
3.725999999999986e+00	2.611405e+00	3.221108e-11	9.818827e-08	9.819115e-08
3.726999999999986e+00	2.611405e+00	3.300191e-11	9.818748e-08	9.819115e-08
3.727999999999986e+00	2.611406e+00	3.381820e-11	9.818667e-08	9.819115e-08
3.728999999999986e+00	2.611406e+00	3.466076e-11	9.818582e-08	9.819116e-08
3.729999999999986e+00	2.611406e+00	3.553044e-11	9.818496e-08	9.819116e-08
3.730999999999986e+00	2.611407e+00	3.642811e-11	9.818406e-08	9.819116e-08
3.731999999999986e+00	2.611407e+00	3.735469e-11	9.818314e-08	9.819116e-08
3.732999999999985e+00	2.611407e+00	3.831108e-11	9.818218e-08	9.819116e-08
3.733999999999985e+00	2.611408e+00	3.929826e-11	9.818119e-08	9.819116e-08
3.734999999999985e+00	2.611408e+00	4.031721e-11	9.818017e-08	9.819116e-08
3.735999999999985e+00	2.611408e+00	4.136895e-11	9.817912e-08	9.819116e-08
3.736999999999985e+00	2.611409e+00	4.245456e-11	9.817803e-08	9.819117e-08
3.737999999999985e+00	2.611409e+00	4.357509e-11	9.817692e-08	9.819117e-08
3.738999999999985e+00	2.611409e+00	4.473169e-11	9.817576e-08	9.819117e-08
3.739999999999985e+00	2.611410e+00	4.592553e-11	9.817457e-08	9.819117e-08
3.740999999999985e+00	2.611410e+00	4.715777e-11	9.817334e-08	9.819117e-08
3.741999999999984e+00	2.611411e+00	4.842968e-11	9.817207e-08	9.819117e-08
3.742999999999984e+00	2.611411e+00	4.974252e-11	9.817076e-08	9.819117e-08
3.743999999999984e+00	2.611412e+00	5.109761e-11	9.816940e-08	9.819117e-08
3.744999999999984e+00	2.611412e+00	5.249630e-11	9.816800e-08	9.819117e-08
3.745999999999984e+00	2.611413e+00	5.394001e-11	9.816656e-08	9.819117e-08
3.746999999999984e+00	2.611413e+00	5.543016e-11	9.816507e-08	9.819117e-08
3.747999999999984e+00	2.611414e+00	5.696827e-11	9.816354e-08	9.819117e-08
3.748999999999984e+00	2.611414e+00	5.855587e-11	9.816195e-08	9.819118e-08
3.749999999999984e+00	2.611415e+00	6.019454e-11	9.816031e-08	9.819118e-08
3.750999999999983e+00	2.611416e+00	6.188595e-11	9.815862e-08	9.819118e-08
3.751999999999983e+00	2.611416e+00	6.363177e-11	9.815688e-08	9.819118e-08
3.752999999999983e+00	2.611417e+00	6.543374e-11	9.815508e-08	9.819118e-08
3.753999999999983e+00	2.611418e+00	6.729369e-11	9.815322e-08	9.819119e-08
3.754999999999983e+00	2.611418e+00	6.921348e-11	9.815130e-08	9.819119e-08
3.755999999999983e+00	2.611419e+00	7.119501e-11	9.814932e-08	9.819119e-08
3.756999999999983e+00	2.611420e+00	7.324027e-11	9.814728e-08	9.819119e-08
3.757999999999983e+00	2.611420e+00	7.535132e-11	9.814517e-08	9.819119e-08
3.758999999999983e+00	2.611421e+00	7.753026e-11	9.814299e-08	9.819119e-08
3.759999999999982e+00	2.611422e+00	7.977928e-11	9.814075e-08	9.819119e-08
3.760999999999982e+00	2.611423e+00	8.210062e-11	9.813843e-08	9.819120e-08
3.761999999999982e+00	2.611424e+00	8.449660e-11	9.813603e-08	9.819120e-08
3.762999999999982e+00	2.611425e+00	8.696961e-11	9.813356e-08	9.819120e-08
3.763999999999982e+00	2.611426e+00	8.952214e-11	9.813101e-08	9.819120e-08
3.764999999999982e+00	2.611427e+00	9.215673e-11	9.812838e-08	9.819121e-08
3.765999999999982e+00	2.611428e+00	9.487600e-11	9.812566e-08	9.819121e-08
3.766999999999982e+00	2.611428e+00	9.768268e-11	9.812286e-08	9.819121e-08
3.767999999999982e+00	2.611429e+00	1.005796e-10	9.811996e-08	9.819122e-08
3.768999999999981e+00	2.611431e+00	1.035696e-10	9.811698e-08	9.819122e-08
3.769999999999981e+00	2.611432e+00	1.066556e-10	9.811389e-08	9.819122e-08
3.770999999999981e+00	2.611433e+00	1.098409e-10	9.811071e-08	9.819122e-08
3.771999999999981e+00	2.611434e+00	1.131284e-10	9.810743e-08	9.819122e-08
3.772999999999981e+00	2.611435e+00	1.165216e-10	9.810404e-08	9.819123e-08
3.773999999999981e+00	2.611437e+00	1.200238e-10	9.810054e-08	9.819123e-08
3.774999999999981e+00	2.611438e+00	1.236384e-10	9.809693e-08	9.819124e-08
3.775999999999981e+00	2.611439e+00	1.273692e-10	9.809320e-08	9.819124e-08
3.776999999999981e+00	2.611441e+00	1.312197e-10	9.808935e-08	9.819124e-08
3.777999999999980e+00	2.611442e+00	1.351939e-10	9.808538e-08	9.819124e-08
3.778999999999980e+00	2.611444e+00	1.392956e-10	9.808128e-08	9.819125e-08
3.779999999999980e+00	2.611445e+00	1.435290e-10	9.807705e-08	9.819125e-08
3.780999999999980e+00	2.611447e+00	1.478983e-10	9.807269e-08	9.819126e-08
3.781999999999980e+00	2.611448e+00	1.524078e-10	9.806818e-08	9.819126e-08
3.782999999999980e+00	2.611450e+00	1.570619e-10	9.806353e-08	9.819126e-08
3.783999999999980e+00	2.611452e+00	1.618654e-10	9.805873e-08	9.819127e-08
3.784999999999980e+00	2.611454e+00	1.668229e-10	9.805378e-08	9.819127e-08
3.785999999999980e+00	2.611455e+00	1.719395e-10	9.804867e-08	9.819128e-08
3.786999999999979e+00	2.611457e+00	1.772200e-10	9.804339e-08	9.819128e-08
3.787999999999979e+00	2.611459e+00	1.826699e-10	9.803795e-08	9.819129e-08
3.788999999999979e+00	2.611461e+00	1.882944e-10	9.803233e-08	9.819129e-08
3.789999999999979e+00	2.611463e+00	1.940992e-10	9.802653e-08	9.819130e-08
3.790999999999979e+00	2.611465e+00	2.000899e-10	9.802054e-08	9.819130e-08
3.791999999999979e+00	2.611468e+00	2.062726e-10	9.801437e-08	9.819131e-08
3.792999999999979e+00	2.611470e+00	2.126532e-10	9.800799e-08	9.819131e-08
3.793999999999979e+00	2.611472e+00	2.192382e-10	9.800141e-08	9.819132e-08
3.794999999999979e+00	2.611475e+00	2.260339e-10	9.799462e-08	9.819133e-08
3.795999999999979e+00	2.611477e+00	2.330472e-10	9.798762e-08	9.819133e-08
3.796999999999978e+00	2.611480e+00	2.402848e-10	9.798038e-08	9.819134e-08
3.797999999999978e+00	2.611483e+00	2.477539e-10	9.797292e-08	9.819134e-08
3.798999999999978e+00	2.611485e+00	2.554619e-10	9.796522e-08	9.819135e-08
3.799999999999978e+00	2.611488e+00	2.634164e-10	9.795728e-08	9.819136e-08
3.800999999999978e+00	2.611491e+00	2.716250e-10	9.794907e-08	9.819136e-08
3.801999999999978e+00	2.611494e+00	2.800960e-10	9.794061e-08	9.819137e-08
3.802999999999978e+00	2.611497e+00	2.888375e-10	9.793187e-08	9.819138e-08
3.803999999999978e+00	2.611501e+00	2.978582e-10	9.792286e-08	9.819139e-08
3.804999999999978e+00	2.611504e+00	3.071668e-10	9.791356e-08	9.819140e-08
3.805999999999977e+00	2.611507e+00	3.167726e-10	9.790396e-08	9.819141e-08
3.806999999999977e+00	2.611511e+00	3.266847e-10	9.789406e-08	9.819141e-08
3.807999999999977e+00	2.611515e+00	3.369129e-10	9.788384e-08	9.819142e-08
3.808999999999977e+00	2.611519e+00	3.474672e-10	9.787330e-08	9.819144e-08
3.809999999999977e+00	2.611522e+00	3.583578e-10	9.786242e-08	9.819144e-08
3.810999999999977e+00	2.611526e+00	3.695952e-10	9.785119e-08	9.819146e-08
3.811999999999977e+00	2.611531e+00	3.811905e-10	9.783960e-08	9.819146e-08
3.812999999999977e+00	2.611535e+00	3.931549e-10	9.782765e-08	9.819147e-08
3.813999999999977e+00	2.611540e+00	4.054998e-10	9.781532e-08	9.819149e-08
3.814999999999976e+00	2.611544e+00	4.182373e-10	9.780259e-08	9.819150e-08
3.815999999999976e+00	2.611549e+00	4.313797e-10	9.778946e-08	9.819151e-08
3.816999999999976e+00	2.611554e+00	4.449395e-10	9.777591e-08	9.819152e-08
3.817999999999976e+00	2.611559e+00	4.589299e-10	9.776193e-08	9.819153e-08
3.818999999999976e+00	2.611564e+00	4.733643e-10	9.774752e-08	9.819155e-08
3.819999999999976e+00	2.611569e+00	4.882566e-10	9.773264e-08	9.819156e-08
3.820999999999976e+00	2.611575e+00	5.036210e-10	9.771728e-08	9.819157e-08
3.821999999999976e+00	2.611581e+00	5.194722e-10	9.770145e-08	9.819158e-08
3.822999999999976e+00	2.611587e+00	5.358254e-10	9.768511e-08	9.819160e-08
3.823999999999975e+00	2.611593e+00	5.526961e-10	9.766826e-08	9.819162e-08
3.824999999999975e+00	2.611599e+00	5.701002e-10	9.765086e-08	9.819163e-08
3.825999999999975e+00	2.611605e+00	5.880546e-10	9.763293e-08	9.819165e-08
3.826999999999975e+00	2.611612e+00	6.065760e-10	9.761442e-08	9.819166e-08
3.827999999999975e+00	2.611619e+00	6.256821e-10	9.759533e-08	9.819168e-08
3.828999999999975e+00	2.611626e+00	6.453907e-10	9.757564e-08	9.819170e-08
3.829999999999975e+00	2.611634e+00	6.657206e-10	9.755533e-08	9.819172e-08
3.830999999999975e+00	2.611641e+00	6.866908e-10	9.753438e-08	9.819173e-08
3.831999999999975e+00	2.611649e+00	7.083209e-10	9.751277e-08	9.819176e-08
3.832999999999974e+00	2.611657e+00	7.306312e-10	9.749048e-08	9.819178e-08
3.833999999999974e+00	2.611665e+00	7.536424e-10	9.746748e-08	9.819180e-08
3.834999999999974e+00	2.611674e+00	7.773760e-10	9.744377e-08	9.819182e-08
3.835999999999974e+00	2.611683e+00	8.018540e-10	9.741932e-08	9.819184e-08
3.836999999999974e+00	2.611692e+00	8.270991e-10	9.739410e-08	9.819186e-08
3.837999999999974e+00	2.611701e+00	8.531344e-10	9.736809e-08	9.819188e-08
3.838999999999974e+00	2.611711e+00	8.799840e-10	9.734126e-08	9.819191e-08
3.839999999999974e+00	2.611721e+00	9.076725e-10	9.731360e-08	9.819193e-08
3.840999999999974e+00	2.611732e+00	9.362253e-10	9.728507e-08	9.819196e-08
3.841999999999973e+00	2.611742e+00	9.656683e-10	9.725565e-08	9.819198e-08
3.842999999999973e+00	2.611753e+00	9.960283e-10	9.722532e-08	9.819201e-08
3.843999999999973e+00	2.611765e+00	1.027333e-09	9.719405e-08	9.819204e-08
3.844999999999973e+00	2.611776e+00	1.059610e-09	9.716180e-08	9.819207e-08
3.845999999999973e+00	2.611788e+00	1.092889e-09	9.712855e-08	9.819210e-08
3.846999999999973e+00	2.611801e+00	1.127199e-09	9.709427e-08	9.819213e-08
3.847999999999973e+00	2.611814e+00	1.162572e-09	9.705893e-08	9.819216e-08
3.848999999999973e+00	2.611827e+00	1.199038e-09	9.702249e-08	9.819220e-08
3.849999999999973e+00	2.611840e+00	1.236630e-09	9.698493e-08	9.819223e-08
3.850999999999972e+00	2.611855e+00	1.275381e-09	9.694622e-08	9.819227e-08
3.851999999999972e+00	2.611869e+00	1.315325e-09	9.690631e-08	9.819230e-08
3.852999999999972e+00	2.611884e+00	1.356496e-09	9.686518e-08	9.819234e-08
3.853999999999972e+00	2.611900e+00	1.398931e-09	9.682278e-08	9.819237e-08
3.854999999999972e+00	2.611916e+00	1.442667e-09	9.677908e-08	9.819242e-08
3.855999999999972e+00	2.611932e+00	1.487740e-09	9.673406e-08	9.819245e-08
3.856999999999972e+00	2.611949e+00	1.534190e-09	9.668764e-08	9.819249e-08
3.857999999999972e+00	2.611966e+00	1.582057e-09	9.663982e-08	9.819254e-08
3.858999999999972e+00	2.611984e+00	1.631379e-09	9.659054e-08	9.819259e-08
3.859999999999971e+00	2.612003e+00	1.682200e-09	9.653976e-08	9.819263e-08
3.860999999999971e+00	2.612022e+00	1.734562e-09	9.648745e-08	9.819268e-08
3.861999999999971e+00	2.612042e+00	1.788508e-09	9.643356e-08	9.819273e-08
3.862999999999971e+00	2.612062e+00	1.844083e-09	9.637803e-08	9.819278e-08
3.863999999999971e+00	2.612083e+00	1.901333e-09	9.632083e-08	9.819283e-08
3.864999999999971e+00	2.612104e+00	1.960304e-09	9.626191e-08	9.819288e-08
3.865999999999971e+00	2.612127e+00	2.021044e-09	9.620123e-08	9.819293e-08
3.866999999999971e+00	2.612149e+00	2.083603e-09	9.613873e-08	9.819299e-08
3.867999999999971e+00	2.612173e+00	2.148030e-09	9.607436e-08	9.819305e-08
