time	V(vin)	V(vout)
0.000000000000000e+00	2.500000e+00	2.494916e+00
5.031553599973893e-05	2.500000e+00	2.494916e+00
1.015155359997402e-04	2.500000e+00	2.494916e+00
1.527155359997414e-04	2.500000e+00	2.494916e+00
2.039155359997427e-04	2.500000e+00	2.494916e+00
2.551155359997380e-04	2.500000e+00	2.494916e+00
3.063155359997114e-04	2.500000e+00	2.494916e+00
3.575155359996849e-04	2.500000e+00	2.494916e+00
4.087155359996584e-04	2.500000e+00	2.494916e+00
4.599155359996319e-04	2.500000e+00	2.494916e+00
5.111155359996301e-04	2.500000e+00	2.494916e+00
5.623155359996591e-04	2.500000e+00	2.494916e+00
6.135155359996881e-04	2.500000e+00	2.494916e+00
6.647155359997171e-04	2.500000e+00	2.494916e+00
7.159155359997461e-04	2.500000e+00	2.494916e+00
7.671155359997751e-04	2.500000e+00	2.494916e+00
8.183155359998041e-04	2.500000e+00	2.494916e+00
8.695155359998331e-04	2.500000e+00	2.494916e+00
9.207155359998621e-04	2.500000e+00	2.494916e+00
9.719155359998911e-04	2.500000e+00	2.494916e+00
1.000035000000000e-03	2.500700e+00	2.494916e+00
1.000912142857142e-03	2.518243e+00	2.494935e+00
1.001789285714283e-03	2.535786e+00	2.494965e+00
1.002666428571424e-03	2.553328e+00	2.495008e+00
1.003543571428566e-03	2.570871e+00	2.495062e+00
1.004420714285707e-03	2.588414e+00	2.495128e+00
1.005297857142849e-03	2.605957e+00	2.495207e+00
1.006174999999990e-03	2.623500e+00	2.495297e+00
1.007460714285702e-03	2.649214e+00	2.495424e+00
1.008746428571415e-03	2.674929e+00	2.495553e+00
1.010032142857127e-03	2.700643e+00	2.495682e+00
1.011317857142839e-03	2.726357e+00	2.495813e+00
1.012603571428551e-03	2.752071e+00	2.495944e+00
1.013889285714264e-03	2.777786e+00	2.496077e+00
1.015174999999976e-03	2.803500e+00	2.496210e+00
1.016282142857117e-03	2.825643e+00	2.496325e+00
1.017389285714258e-03	2.847786e+00	2.496439e+00
1.018496428571399e-03	2.869929e+00	2.496553e+00
1.019603571428540e-03	2.892071e+00	2.496668e+00
1.020710714285681e-03	2.914214e+00	2.496782e+00
1.021817857142822e-03	2.936357e+00	2.496897e+00
1.022924999999963e-03	2.958500e+00	2.497012e+00
1.022974999999963e-03	2.959500e+00	2.497017e+00
1.026574999999958e-03	3.031500e+00	2.497391e+00
1.030174999999952e-03	3.103500e+00	2.497765e+00
1.033774999999946e-03	3.175500e+00	2.498140e+00
1.037374999999940e-03	3.247500e+00	2.498515e+00
1.040974999999934e-03	3.319500e+00	2.498891e+00
1.044574999999929e-03	3.391500e+00	2.499268e+00
1.048174999999923e-03	3.463500e+00	2.499645e+00
1.051882142857060e-03	3.537643e+00	2.500034e+00
1.055589285714197e-03	3.611786e+00	2.500424e+00
1.059296428571334e-03	3.685929e+00	2.500814e+00
1.063003571428471e-03	3.760071e+00	2.501205e+00
1.066710714285607e-03	3.834214e+00	2.501597e+00
1.070417857142745e-03	3.908357e+00	2.501989e+00
1.074124999999881e-03	3.982500e+00	2.502382e+00
1.074174999999881e-03	3.983500e+00	2.502387e+00
1.077932142857041e-03	4.060195e+00	2.502786e+00
1.081689285714201e-03	4.135921e+00	2.503185e+00
1.085446428571361e-03	4.210676e+00	2.503585e+00
1.089203571428520e-03	4.284462e+00	2.503985e+00
1.092960714285680e-03	4.357278e+00	2.504387e+00
1.096717857142840e-03	4.429124e+00	2.504788e+00
1.100474999999999e-03	4.500000e+00	2.505191e+00
1.125224999999960e-03	4.500000e+00	2.507843e+00
1.176424999999878e-03	4.500000e+00	2.513329e+00
1.227624999999796e-03	4.500000e+00	2.518815e+00
1.278824999999714e-03	4.500000e+00	2.524299e+00
1.330024999999632e-03	4.500000e+00	2.529782e+00
1.381224999999550e-03	4.500000e+00	2.535264e+00
1.432424999999468e-03	4.500000e+00	2.540745e+00
1.483624999999386e-03	4.500000e+00	2.546226e+00
1.534824999999304e-03	4.500000e+00	2.551705e+00
1.586024999999222e-03	4.500000e+00	2.557183e+00
1.637224999999140e-03	4.500000e+00	2.562660e+00
1.688424999999058e-03	4.500000e+00	2.568136e+00
1.739624999998975e-03	4.500000e+00	2.573611e+00
1.790824999998893e-03	4.500000e+00	2.579084e+00
1.842024999998811e-03	4.500000e+00	2.584557e+00
1.893224999998729e-03	4.500000e+00	2.590029e+00
1.944424999998647e-03	4.500000e+00	2.595500e+00
1.995624999998750e-03	4.500000e+00	2.600969e+00
2.046824999998890e-03	4.500000e+00	2.606438e+00
2.098024999999030e-03	4.500000e+00	2.611905e+00
2.149224999999170e-03	4.500000e+00	2.617372e+00
2.200424999999310e-03	4.500000e+00	2.622837e+00
2.251624999999450e-03	4.500000e+00	2.628301e+00
2.302824999999590e-03	4.500000e+00	2.633765e+00
2.354024999999730e-03	4.500000e+00	2.639227e+00
2.405224999999870e-03	4.500000e+00	2.644688e+00
2.456425000000010e-03	4.500000e+00	2.650148e+00
2.507625000000150e-03	4.500000e+00	2.655607e+00
2.558825000000290e-03	4.500000e+00	2.661065e+00
2.610025000000430e-03	4.500000e+00	2.666522e+00
2.661225000000570e-03	4.500000e+00	2.671978e+00
2.712425000000710e-03	4.500000e+00	2.677432e+00
2.763625000000850e-03	4.500000e+00	2.682886e+00
2.814825000000990e-03	4.500000e+00	2.688339e+00
2.866025000001130e-03	4.500000e+00	2.693790e+00
2.917225000001270e-03	4.500000e+00	2.699240e+00
2.968425000001410e-03	4.500000e+00	2.704690e+00
3.019625000001550e-03	4.500000e+00	2.710138e+00
3.070825000001690e-03	4.500000e+00	2.715585e+00
3.122025000001830e-03	4.500000e+00	2.721031e+00
3.173225000001970e-03	4.500000e+00	2.726477e+00
3.224425000002110e-03	4.500000e+00	2.731920e+00
3.275625000002250e-03	4.500000e+00	2.737363e+00
3.326825000002390e-03	4.500000e+00	2.742805e+00
3.378025000002530e-03	4.500000e+00	2.748246e+00
3.429225000002670e-03	4.500000e+00	2.753686e+00
3.480425000002810e-03	4.500000e+00	2.759124e+00
3.531625000002950e-03	4.500000e+00	2.764562e+00
3.582825000003090e-03	4.500000e+00	2.769998e+00
3.634025000003230e-03	4.500000e+00	2.775433e+00
3.685225000003370e-03	4.500000e+00	2.780868e+00
3.736425000003510e-03	4.500000e+00	2.786301e+00
3.787625000003650e-03	4.500000e+00	2.791733e+00
3.838825000003791e-03	4.500000e+00	2.797164e+00
3.890025000003931e-03	4.500000e+00	2.802593e+00
3.941225000003767e-03	4.500000e+00	2.808022e+00
3.992425000003463e-03	4.500000e+00	2.813450e+00
4.043625000003159e-03	4.500000e+00	2.818877e+00
4.094825000002855e-03	4.500000e+00	2.824302e+00
4.146025000002551e-03	4.500000e+00	2.829726e+00
4.197225000002247e-03	4.500000e+00	2.835150e+00
4.248425000001943e-03	4.500000e+00	2.840572e+00
4.299625000001639e-03	4.500000e+00	2.845993e+00
4.350825000001335e-03	4.500000e+00	2.851413e+00
4.402025000001031e-03	4.500000e+00	2.856832e+00
4.453225000000727e-03	4.500000e+00	2.862250e+00
4.504425000000423e-03	4.500000e+00	2.867666e+00
4.555625000000119e-03	4.500000e+00	2.873082e+00
4.606824999999815e-03	4.500000e+00	2.878497e+00
4.658024999999510e-03	4.500000e+00	2.883910e+00
4.709224999999206e-03	4.500000e+00	2.889322e+00
4.760424999998902e-03	4.500000e+00	2.894733e+00
4.811624999998598e-03	4.500000e+00	2.900144e+00
4.862824999998294e-03	4.500000e+00	2.905553e+00
4.914024999997990e-03	4.500000e+00	2.910960e+00
4.965224999997686e-03	4.500000e+00	2.916367e+00
5.016424999997382e-03	4.500000e+00	2.921773e+00
5.067624999997078e-03	4.500000e+00	2.927177e+00
5.118824999996774e-03	4.500000e+00	2.932581e+00
5.170024999996470e-03	4.500000e+00	2.937983e+00
5.221224999996166e-03	4.500000e+00	2.943384e+00
5.272424999995862e-03	4.500000e+00	2.948784e+00
5.323624999995558e-03	4.500000e+00	2.954183e+00
5.374824999995254e-03	4.500000e+00	2.959581e+00
5.426024999994949e-03	4.500000e+00	2.964978e+00
5.477224999994645e-03	4.500000e+00	2.970373e+00
5.528424999994341e-03	4.500000e+00	2.975768e+00
5.579624999994037e-03	4.500000e+00	2.981161e+00
5.630824999993733e-03	4.500000e+00	2.986553e+00
5.682024999993429e-03	4.500000e+00	2.991945e+00
5.733224999993125e-03	4.500000e+00	2.997334e+00
5.784424999992821e-03	4.500000e+00	3.002723e+00
5.835624999992517e-03	4.500000e+00	3.008111e+00
5.886824999992213e-03	4.500000e+00	3.013498e+00
5.938024999991909e-03	4.500000e+00	3.018883e+00
5.989224999991605e-03	4.500000e+00	3.024267e+00
6.040424999991301e-03	4.500000e+00	3.029650e+00
6.091624999990997e-03	4.500000e+00	3.035033e+00
6.142824999990693e-03	4.500000e+00	3.040414e+00
6.194024999990388e-03	4.500000e+00	3.045793e+00
6.245224999990084e-03	4.500000e+00	3.051172e+00
6.296424999989780e-03	4.500000e+00	3.056550e+00
6.347624999989476e-03	4.500000e+00	3.061926e+00
6.398824999989172e-03	4.500000e+00	3.067301e+00
6.450024999988868e-03	4.500000e+00	3.072675e+00
6.501224999988564e-03	4.500000e+00	3.078048e+00
6.552424999988260e-03	4.500000e+00	3.083420e+00
6.603624999987956e-03	4.500000e+00	3.088791e+00
6.654824999987652e-03	4.500000e+00	3.094160e+00
6.706024999987348e-03	4.500000e+00	3.099529e+00
6.757224999987044e-03	4.500000e+00	3.104896e+00
6.808424999986740e-03	4.500000e+00	3.110262e+00
6.859624999986436e-03	4.500000e+00	3.115627e+00
6.910824999986132e-03	4.500000e+00	3.120991e+00
6.962024999985827e-03	4.500000e+00	3.126354e+00
7.013224999985523e-03	4.500000e+00	3.131715e+00
7.064424999985219e-03	4.500000e+00	3.137075e+00
7.115624999984915e-03	4.500000e+00	3.142434e+00
7.166824999984611e-03	4.500000e+00	3.147793e+00
7.218024999984307e-03	4.500000e+00	3.153149e+00
7.269224999984003e-03	4.500000e+00	3.158505e+00
7.320424999983699e-03	4.500000e+00	3.163860e+00
7.371624999983395e-03	4.500000e+00	3.169213e+00
7.422824999983091e-03	4.500000e+00	3.174565e+00
7.474024999982787e-03	4.500000e+00	3.179916e+00
7.525224999982483e-03	4.500000e+00	3.185266e+00
7.576424999982179e-03	4.500000e+00	3.190615e+00
7.627624999981875e-03	4.500000e+00	3.195963e+00
7.678824999981571e-03	4.500000e+00	3.201309e+00
7.730024999981266e-03	4.500000e+00	3.206654e+00
7.781224999980962e-03	4.500000e+00	3.211998e+00
7.832424999980658e-03	4.500000e+00	3.217341e+00
7.883624999980354e-03	4.500000e+00	3.222683e+00
7.934824999980050e-03	4.500000e+00	3.228024e+00
7.986024999979746e-03	4.500000e+00	3.233363e+00
8.037224999979442e-03	4.500000e+00	3.238701e+00
8.088424999979138e-03	4.500000e+00	3.244038e+00
8.139624999978834e-03	4.500000e+00	3.249374e+00
8.190824999978530e-03	4.500000e+00	3.254709e+00
8.242024999978226e-03	4.500000e+00	3.260042e+00
8.293224999977922e-03	4.500000e+00	3.265375e+00
8.344424999977618e-03	4.500000e+00	3.270706e+00
8.395624999977314e-03	4.500000e+00	3.276036e+00
8.446824999977010e-03	4.500000e+00	3.281364e+00
8.498024999976705e-03	4.500000e+00	3.286692e+00
8.549224999976401e-03	4.500000e+00	3.292018e+00
8.600424999976097e-03	4.500000e+00	3.297344e+00
8.651624999975793e-03	4.500000e+00	3.302668e+00
8.702824999975489e-03	4.500000e+00	3.307991e+00
8.754024999975185e-03	4.500000e+00	3.313312e+00
8.805224999974881e-03	4.500000e+00	3.318633e+00
8.856424999974577e-03	4.500000e+00	3.323952e+00
8.907624999974273e-03	4.500000e+00	3.329270e+00
8.958824999973969e-03	4.500000e+00	3.334587e+00
9.010024999973665e-03	4.500000e+00	3.339902e+00
9.061224999973361e-03	4.500000e+00	3.345217e+00
9.112424999973057e-03	4.500000e+00	3.350530e+00
9.163624999972753e-03	4.500000e+00	3.355842e+00
9.214824999972449e-03	4.500000e+00	3.361153e+00
9.266024999972144e-03	4.500000e+00	3.366463e+00
9.317224999971840e-03	4.500000e+00	3.371771e+00
9.368424999971536e-03	4.500000e+00	3.377079e+00
9.419624999971232e-03	4.500000e+00	3.382385e+00
9.470824999970928e-03	4.500000e+00	3.387689e+00
9.522024999970624e-03	4.500000e+00	3.392993e+00
9.573224999970320e-03	4.500000e+00	3.398295e+00
9.624424999970016e-03	4.500000e+00	3.403596e+00
9.675624999969712e-03	4.500000e+00	3.408896e+00
9.726824999969408e-03	4.500000e+00	3.414195e+00
9.778024999969104e-03	4.500000e+00	3.419493e+00
9.829224999968800e-03	4.500000e+00	3.424789e+00
9.880424999968496e-03	4.500000e+00	3.430084e+00
9.931624999968192e-03	4.500000e+00	3.435378e+00
9.982824999967888e-03	4.500000e+00	3.440671e+00
1.003402499996758e-02	4.500000e+00	3.445962e+00
1.008522499996728e-02	4.500000e+00	3.451252e+00
1.013642499996698e-02	4.500000e+00	3.456541e+00
1.018762499996667e-02	4.500000e+00	3.461829e+00
1.023882499996637e-02	4.500000e+00	3.467116e+00
1.029002499996606e-02	4.500000e+00	3.472401e+00
1.034122499996576e-02	4.500000e+00	3.477685e+00
1.039242499996545e-02	4.500000e+00	3.482968e+00
1.044362499996515e-02	4.500000e+00	3.488249e+00
1.049482499996485e-02	4.500000e+00	3.493530e+00
1.054602499996454e-02	4.500000e+00	3.498809e+00
1.059722499996424e-02	4.500000e+00	3.504087e+00
1.064842499996393e-02	4.500000e+00	3.509363e+00
1.069962499996363e-02	4.500000e+00	3.514639e+00
1.075082499996333e-02	4.500000e+00	3.519913e+00
1.080202499996302e-02	4.500000e+00	3.525186e+00
1.085322499996272e-02	4.500000e+00	3.530457e+00
1.090442499996241e-02	4.500000e+00	3.535728e+00
1.095562499996211e-02	4.500000e+00	3.540997e+00
1.100682499996181e-02	4.500000e+00	3.546265e+00
1.105802499996150e-02	4.500000e+00	3.551532e+00
1.110922499996120e-02	4.500000e+00	3.556797e+00
1.116042499996089e-02	4.500000e+00	3.562061e+00
1.121162499996059e-02	4.500000e+00	3.567324e+00
1.126282499996029e-02	4.500000e+00	3.572586e+00
1.131402499995998e-02	4.500000e+00	3.577846e+00
1.136522499995968e-02	4.500000e+00	3.583105e+00
1.141642499995937e-02	4.500000e+00	3.588363e+00
1.146762499995907e-02	4.500000e+00	3.593620e+00
1.151882499995877e-02	4.500000e+00	3.598875e+00
1.157002499995846e-02	4.500000e+00	3.604129e+00
1.162122499995816e-02	4.500000e+00	3.609382e+00
1.167242499995785e-02	4.500000e+00	3.614633e+00
1.172362499995755e-02	4.500000e+00	3.619884e+00
1.177482499995725e-02	4.500000e+00	3.625133e+00
1.182602499995694e-02	4.500000e+00	3.630380e+00
1.187722499995664e-02	4.500000e+00	3.635627e+00
1.192842499995633e-02	4.500000e+00	3.640872e+00
1.197962499995603e-02	4.500000e+00	3.646116e+00
1.203082499995572e-02	4.500000e+00	3.651358e+00
1.208202499995542e-02	4.500000e+00	3.656600e+00
1.213322499995512e-02	4.500000e+00	3.661839e+00
1.218442499995481e-02	4.500000e+00	3.667078e+00
1.223562499995451e-02	4.500000e+00	3.672316e+00
1.228682499995420e-02	4.500000e+00	3.677552e+00
1.233802499995390e-02	4.500000e+00	3.682787e+00
1.238922499995360e-02	4.500000e+00	3.688020e+00
1.244042499995329e-02	4.500000e+00	3.693253e+00
1.249162499995299e-02	4.500000e+00	3.698483e+00
1.254282499995268e-02	4.500000e+00	3.703713e+00
1.259402499995238e-02	4.500000e+00	3.708942e+00
1.264522499995208e-02	4.500000e+00	3.714169e+00
1.269642499995177e-02	4.500000e+00	3.719394e+00
1.274762499995147e-02	4.500000e+00	3.724619e+00
1.279882499995116e-02	4.500000e+00	3.729842e+00
1.285002499995086e-02	4.500000e+00	3.735064e+00
1.290122499995056e-02	4.500000e+00	3.740285e+00
1.295242499995025e-02	4.500000e+00	3.745504e+00
1.300362499994995e-02	4.500000e+00	3.750722e+00
1.305482499994964e-02	4.500000e+00	3.755939e+00
1.310602499994934e-02	4.500000e+00	3.761154e+00
1.315722499994904e-02	4.500000e+00	3.766368e+00
1.320842499994873e-02	4.500000e+00	3.771580e+00
1.325962499994843e-02	4.500000e+00	3.776792e+00
1.331082499994812e-02	4.500000e+00	3.782002e+00
1.336202499994782e-02	4.500000e+00	3.787210e+00
1.341322499994752e-02	4.500000e+00	3.792418e+00
1.346442499994721e-02	4.500000e+00	3.797624e+00
1.351562499994691e-02	4.500000e+00	3.802829e+00
1.356682499994660e-02	4.500000e+00	3.808032e+00
1.361802499994630e-02	4.500000e+00	3.813234e+00
1.366922499994599e-02	4.500000e+00	3.818435e+00
1.372042499994569e-02	4.500000e+00	3.823634e+00
1.377162499994539e-02	4.500000e+00	3.828832e+00
1.382282499994508e-02	4.500000e+00	3.834029e+00
1.387402499994478e-02	4.500000e+00	3.839224e+00
1.392522499994447e-02	4.500000e+00	3.844418e+00
1.397642499994417e-02	4.500000e+00	3.849611e+00
1.402762499994387e-02	4.500000e+00	3.854802e+00
1.407882499994356e-02	4.500000e+00	3.859992e+00
1.413002499994326e-02	4.500000e+00	3.865181e+00
1.418122499994295e-02	4.500000e+00	3.870368e+00
1.423242499994265e-02	4.500000e+00	3.875554e+00
1.428362499994235e-02	4.500000e+00	3.880739e+00
1.433482499994204e-02	4.500000e+00	3.885922e+00
1.438602499994174e-02	4.500000e+00	3.891104e+00
1.443722499994143e-02	4.500000e+00	3.896284e+00
1.448842499994113e-02	4.500000e+00	3.901464e+00
1.453962499994083e-02	4.500000e+00	3.906641e+00
1.459082499994052e-02	4.500000e+00	3.911818e+00
1.464202499994022e-02	4.500000e+00	3.916993e+00
1.469322499993991e-02	4.500000e+00	3.922166e+00
1.474442499993961e-02	4.500000e+00	3.927339e+00
1.479562499993931e-02	4.500000e+00	3.932509e+00
1.484682499993900e-02	4.500000e+00	3.937679e+00
1.489802499993870e-02	4.500000e+00	3.942847e+00
1.494922499993839e-02	4.500000e+00	3.948014e+00
1.500042499993809e-02	4.500000e+00	3.953179e+00
1.505162499993778e-02	4.500000e+00	3.958343e+00
1.510282499993748e-02	4.500000e+00	3.963506e+00
1.515402499993718e-02	4.500000e+00	3.968667e+00
1.520522499993687e-02	4.500000e+00	3.973827e+00
1.525642499993657e-02	4.500000e+00	3.978985e+00
1.530762499993626e-02	4.500000e+00	3.984142e+00
1.535882499993596e-02	4.500000e+00	3.989298e+00
1.541002499993566e-02	4.500000e+00	3.994452e+00
1.546122499993535e-02	4.500000e+00	3.999605e+00
1.551242499993505e-02	4.500000e+00	4.004756e+00
1.556362499993474e-02	4.500000e+00	4.009906e+00
1.561482499993444e-02	4.500000e+00	4.015055e+00
1.566602499993556e-02	4.500000e+00	4.020202e+00
1.571722499993703e-02	4.500000e+00	4.025348e+00
1.576842499993850e-02	4.500000e+00	4.030492e+00
1.581962499993998e-02	4.500000e+00	4.035635e+00
1.587082499994145e-02	4.500000e+00	4.040777e+00
1.592202499994292e-02	4.500000e+00	4.045917e+00
1.597322499994439e-02	4.500000e+00	4.051055e+00
1.602442499994586e-02	4.500000e+00	4.056193e+00
1.607562499994734e-02	4.500000e+00	4.061328e+00
1.612682499994881e-02	4.500000e+00	4.066463e+00
1.617802499995028e-02	4.500000e+00	4.071596e+00
1.622922499995175e-02	4.500000e+00	4.076727e+00
1.628042499995323e-02	4.500000e+00	4.081858e+00
1.633162499995470e-02	4.500000e+00	4.086986e+00
1.638282499995617e-02	4.500000e+00	4.092113e+00
1.643402499995764e-02	4.500000e+00	4.097239e+00
1.648522499995912e-02	4.500000e+00	4.102364e+00
1.653642499996059e-02	4.500000e+00	4.107486e+00
1.658762499996206e-02	4.500000e+00	4.112607e+00
1.663882499996353e-02	4.500000e+00	4.117727e+00
1.669002499996500e-02	4.500000e+00	4.122846e+00
1.674122499996648e-02	4.500000e+00	4.127963e+00
1.679242499996795e-02	4.500000e+00	4.133079e+00
1.684362499996942e-02	4.500000e+00	4.138192e+00
1.689482499997089e-02	4.500000e+00	4.143305e+00
1.694602499997237e-02	4.500000e+00	4.148416e+00
1.699722499997384e-02	4.500000e+00	4.153525e+00
1.704842499997531e-02	4.500000e+00	4.158634e+00
1.709962499997678e-02	4.500000e+00	4.163740e+00
1.715082499997825e-02	4.500000e+00	4.168845e+00
1.720202499997973e-02	4.500000e+00	4.173948e+00
1.725322499998120e-02	4.500000e+00	4.179050e+00
1.730442499998267e-02	4.500000e+00	4.184151e+00
1.735562499998414e-02	4.500000e+00	4.189249e+00
1.740682499998562e-02	4.500000e+00	4.194346e+00
1.745802499998709e-02	4.500000e+00	4.199442e+00
1.750922499998856e-02	4.500000e+00	4.204535e+00
1.756042499999003e-02	4.500000e+00	4.209628e+00
1.761162499999151e-02	4.500000e+00	4.214718e+00
1.766282499999298e-02	4.500000e+00	4.219806e+00
1.771402499999445e-02	4.500000e+00	4.224893e+00
1.776522499999592e-02	4.500000e+00	4.229978e+00
1.781642499999739e-02	4.500000e+00	4.235060e+00
1.786762499999887e-02	4.500000e+00	4.240141e+00
1.791882500000034e-02	4.500000e+00	4.245219e+00
1.797002500000181e-02	4.500000e+00	4.250295e+00
1.802122500000328e-02	4.500000e+00	4.255369e+00
1.807242500000476e-02	4.500000e+00	4.260439e+00
1.812362500000623e-02	4.500000e+00	4.265507e+00
1.817482500000770e-02	4.500000e+00	4.270572e+00
1.822602500000917e-02	4.500000e+00	4.275633e+00
1.827722500001065e-02	4.500000e+00	4.280690e+00
1.832842500001212e-02	4.500000e+00	4.285744e+00
1.837962500001359e-02	4.500000e+00	4.290792e+00
1.843082500001506e-02	4.500000e+00	4.295836e+00
1.848202500001653e-02	4.500000e+00	4.300873e+00
1.853322500001801e-02	4.500000e+00	4.305904e+00
1.858442500001948e-02	4.500000e+00	4.310928e+00
1.863562500002095e-02	4.500000e+00	4.315944e+00
1.868682500002242e-02	4.500000e+00	4.320950e+00
1.873802500002390e-02	4.500000e+00	4.325944e+00
1.878922500002537e-02	4.500000e+00	4.330926e+00
1.884042500002684e-02	4.500000e+00	4.335895e+00
1.889162500002831e-02	4.500000e+00	4.340846e+00
1.894282500002979e-02	4.500000e+00	4.345779e+00
1.899402500003126e-02	4.500000e+00	4.350690e+00
1.904522500003273e-02	4.500000e+00	4.355577e+00
