Freq.	V(vout)
1.00000000000000e+000	(6.01994501650931e+000dB,-1.55872859711479e-005°)
1.02329299228075e+000	(6.01994501650929e+000dB,-1.59503605029517e-005°)
1.04712854805090e+000	(6.01994501650927e+000dB,-1.63218921270222e-005°)
1.07151930523761e+000	(6.01994501650926e+000dB,-1.67020778343442e-005°)
1.09647819614318e+000	(6.01994501650924e+000dB,-1.70911192044121e-005°)
1.12201845430196e+000	(6.01994501650922e+000dB,-1.74892225121099e-005°)
1.14815362149688e+000	(6.01994501650920e+000dB,-1.78965988370808e-005°)
1.17489755493953e+000	(6.01994501650918e+000dB,-1.83134641756447e-005°)
1.20226443461741e+000	(6.01994501650916e+000dB,-1.87400395553218e-005°)
1.23026877081238e+000	(6.01994501650914e+000dB,-1.91765511520249e-005°)
1.25892541179417e+000	(6.01994501650911e+000dB,-1.96232304099805e-005°)
1.28824955169313e+000	(6.01994501650909e+000dB,-2.00803141644436e-005°)
1.31825673855641e+000	(6.01994501650906e+000dB,-2.05480447672711e-005°)
1.34896288259165e+000	(6.01994501650904e+000dB,-2.10266702154197e-005°)
1.38038426460288e+000	(6.01994501650901e+000dB,-2.15164442824373e-005°)
1.41253754462275e+000	(6.01994501650898e+000dB,-2.20176266530174e-005°)
1.44543977074593e+000	(6.01994501650895e+000dB,-2.25304830606866e-005°)
1.47910838816821e+000	(6.01994501650893e+000dB,-2.30552854287008e-005°)
1.51356124843621e+000	(6.01994501650889e+000dB,-2.35923120142220e-005°)
1.54881661891248e+000	(6.01994501650885e+000dB,-2.41418475558544e-005°)
1.58489319246111e+000	(6.01994501650882e+000dB,-2.47041834246160e-005°)
1.62181009735893e+000	(6.01994501650877e+000dB,-2.52796177784278e-005°)
1.65958690743756e+000	(6.01994501650874e+000dB,-2.58684557202011e-005°)
1.69824365246174e+000	(6.01994501650869e+000dB,-2.64710094596066e-005°)
1.73780082874937e+000	(6.01994501650866e+000dB,-2.70875984786129e-005°)
1.77827941003892e+000	(6.01994501650861e+000dB,-2.77185497008793e-005°)
1.81970085860998e+000	(6.01994501650856e+000dB,-2.83641976650955e-005°)
1.86208713666287e+000	(6.01994501650850e+000dB,-2.90248847023582e-005°)
1.90546071796325e+000	(6.01994501650845e+000dB,-2.97009611176799e-005°)
1.94984459975804e+000	(6.01994501650841e+000dB,-3.03927853757249e-005°)
1.99526231496888e+000	(6.01994501650834e+000dB,-3.11007242908721e-005°)
2.04173794466953e+000	(6.01994501650829e+000dB,-3.18251532217052e-005°)
2.08929613085404e+000	(6.01994501650821e+000dB,-3.25664562700320e-005°)
2.13796208950223e+000	(6.01994501650815e+000dB,-3.33250264845412e-005°)
2.18776162394955e+000	(6.01994501650808e+000dB,-3.41012660692013e-005°)
2.23872113856834e+000	(6.01994501650801e+000dB,-3.48955865965150e-005°)
2.29086765276777e+000	(6.01994501650794e+000dB,-3.57084092257398e-005°)
2.34422881531992e+000	(6.01994501650786e+000dB,-3.65401649261927e-005°)
2.39883291901949e+000	(6.01994501650778e+000dB,-3.73912947057558e-005°)
2.45470891568503e+000	(6.01994501650768e+000dB,-3.82622498447041e-005°)
2.51188643150958e+000	(6.01994501650760e+000dB,-3.91534921349808e-005°)
2.57039578276886e+000	(6.01994501650749e+000dB,-4.00654941250452e-005°)
2.63026799189538e+000	(6.01994501650740e+000dB,-4.09987393704242e-005°)
2.69153480392691e+000	(6.01994501650730e+000dB,-4.19537226900998e-005°)
2.75422870333816e+000	(6.01994501650718e+000dB,-4.29309504288688e-005°)
2.81838293126445e+000	(6.01994501650708e+000dB,-4.39309407258135e-005°)
2.88403150312660e+000	(6.01994501650695e+000dB,-4.49542237890257e-005°)
2.95120922666638e+000	(6.01994501650683e+000dB,-4.60013421767303e-005°)
3.01995172040201e+000	(6.01994501650669e+000dB,-4.70728510849568e-005°)
3.09029543251359e+000	(6.01994501650656e+000dB,-4.81693186419112e-005°)
3.16227766016837e+000	(6.01994501650642e+000dB,-4.92913262092060e-005°)
3.23593656929628e+000	(6.01994501650626e+000dB,-5.04394686901045e-005°)
3.31131121482591e+000	(6.01994501650611e+000dB,-5.16143548449478e-005°)
3.38844156139202e+000	(6.01994501650594e+000dB,-5.28166076139266e-005°)
3.46736850452531e+000	(6.01994501650575e+000dB,-5.40468644473727e-005°)
3.54813389233575e+000	(6.01994501650559e+000dB,-5.53057776437435e-005°)
3.63078054770101e+000	(6.01994501650538e+000dB,-5.65940146954795e-005°)
3.71535229097172e+000	(6.01994501650518e+000dB,-5.79122586429173e-005°)
3.80189396320560e+000	(6.01994501650498e+000dB,-5.92612084364469e-005°)
3.89045144994280e+000	(6.01994501650476e+000dB,-6.06415793071041e-005°)
3.98107170553496e+000	(6.01994501650453e+000dB,-6.20541031457962e-005°)
4.07380277804112e+000	(6.01994501650429e+000dB,-6.34995288913591e-005°)
4.16869383470335e+000	(6.01994501650404e+000dB,-6.49786229276558e-005°)
4.26579518801592e+000	(6.01994501650377e+000dB,-6.64921694899224e-005°)
4.36515832240165e+000	(6.01994501650350e+000dB,-6.80409710805804e-005°)
4.46683592150962e+000	(6.01994501650320e+000dB,-6.96258488947338e-005°)
4.57088189614874e+000	(6.01994501650291e+000dB,-7.12476432555782e-005°)
4.67735141287197e+000	(6.01994501650259e+000dB,-7.29072140599504e-005°)
4.78630092322637e+000	(6.01994501650227e+000dB,-7.46054412342583e-005°)
4.89778819368445e+000	(6.01994501650191e+000dB,-7.63432252010281e-005°)
5.01187233627271e+000	(6.01994501650155e+000dB,-7.81214873563213e-005°)
5.12861383991364e+000	(6.01994501650117e+000dB,-7.99411705582707e-005°)
5.24807460249771e+000	(6.01994501650077e+000dB,-8.18032396269965e-005°)
5.37031796370252e+000	(6.01994501650035e+000dB,-8.37086818561662e-005°)
5.49540873857623e+000	(6.01994501649992e+000dB,-8.56585075364711e-005°)
5.62341325190348e+000	(6.01994501649946e+000dB,-8.76537504912959e-005°)
5.75439937337156e+000	(6.01994501649897e+000dB,-8.96954686248655e-005°)
5.88843655355588e+000	(6.01994501649848e+000dB,-9.17847444831596e-005°)
6.02559586074356e+000	(6.01994501649796e+000dB,-9.39226858278931e-005°)
6.16595001861481e+000	(6.01994501649740e+000dB,-9.61104262238658e-005°)
6.30957344480192e+000	(6.01994501649683e+000dB,-9.83491256399939e-005°)
6.45654229034654e+000	(6.01994501649623e+000dB,-1.00639971064341e-004°)
6.60693448007594e+000	(6.01994501649559e+000dB,-1.02984177133473e-004°)
6.76082975391980e+000	(6.01994501649493e+000dB,-1.05382986776477e-004°)
6.91830970918935e+000	(6.01994501649424e+000dB,-1.07837671873979e-004°)
7.07945784384136e+000	(6.01994501649352e+000dB,-1.10349533932508e-004°)
7.24435960074988e+000	(6.01994501649276e+000dB,-1.12919904774576e-004°)
7.41310241300916e+000	(6.01994501649196e+000dB,-1.15550147244826e-004°)
7.58577575029182e+000	(6.01994501649112e+000dB,-1.18241655932632e-004°)
7.76247116628690e+000	(6.01994501649025e+000dB,-1.20995857911527e-004°)
7.94328234724279e+000	(6.01994501648934e+000dB,-1.23814213495855e-004°)
8.12830516164097e+000	(6.01994501648839e+000dB,-1.26698217015052e-004°)
8.31763771102669e+000	(6.01994501648738e+000dB,-1.29649397605959e-004°)
8.51138038202374e+000	(6.01994501648634e+000dB,-1.32669320023588e-004°)
8.70963589956078e+000	(6.01994501648525e+000dB,-1.35759585470779e-004°)
8.91250938133743e+000	(6.01994501648409e+000dB,-1.38921832447176e-004°)
9.12010839355907e+000	(6.01994501648289e+000dB,-1.42157737617983e-004°)
9.33254300796988e+000	(6.01994501648163e+000dB,-1.45469016702954e-004°)
9.54992586021433e+000	(6.01994501648031e+000dB,-1.48857425386090e-004°)
9.77237220955808e+000	(6.01994501647893e+000dB,-1.52324760246525e-004°)
9.99999999999997e+000	(6.01994501647748e+000dB,-1.55872859711098e-004°)
1.02329299228075e+001	(6.01994501647596e+000dB,-1.59503605029109e-004°)
1.04712854805090e+001	(6.01994501647438e+000dB,-1.63218921269784e-004°)
1.07151930523760e+001	(6.01994501647272e+000dB,-1.67020778342973e-004°)
1.09647819614318e+001	(6.01994501647098e+000dB,-1.70911192043619e-004°)
1.12201845430196e+001	(6.01994501646916e+000dB,-1.74892225120561e-004°)
1.14815362149688e+001	(6.01994501646726e+000dB,-1.78965988370232e-004°)
1.17489755493953e+001	(6.01994501646525e+000dB,-1.83134641755829e-004°)
1.20226443461741e+001	(6.01994501646316e+000dB,-1.87400395552556e-004°)
1.23026877081238e+001	(6.01994501646097e+000dB,-1.91765511519540e-004°)
1.25892541179416e+001	(6.01994501645868e+000dB,-1.96232304099045e-004°)
1.28824955169313e+001	(6.01994501645628e+000dB,-2.00803141643621e-004°)
1.31825673855640e+001	(6.01994501645376e+000dB,-2.05480447671838e-004°)
1.34896288259165e+001	(6.01994501645113e+000dB,-2.10266702153261e-004°)
1.38038426460288e+001	(6.01994501644837e+000dB,-2.15164442823371e-004°)
1.41253754462275e+001	(6.01994501644549e+000dB,-2.20176266529100e-004°)
1.44543977074592e+001	(6.01994501644246e+000dB,-2.25304830605715e-004°)
1.47910838816820e+001	(6.01994501643930e+000dB,-2.30552854285775e-004°)
1.51356124843620e+001	(6.01994501643600e+000dB,-2.35923120140899e-004°)
1.54881661891248e+001	(6.01994501643253e+000dB,-2.41418475557129e-004°)
1.58489319246111e+001	(6.01994501642888e+000dB,-2.47041834244643e-004°)
1.62181009735892e+001	(6.01994501642508e+000dB,-2.52796177782653e-004°)
1.65958690743755e+001	(6.01994501642110e+000dB,-2.58684557200270e-004°)
1.69824365246174e+001	(6.01994501641692e+000dB,-2.64710094594201e-004°)
1.73780082874937e+001	(6.01994501641256e+000dB,-2.70875984784131e-004°)
1.77827941003892e+001	(6.01994501640798e+000dB,-2.77185497006652e-004°)
1.81970085860998e+001	(6.01994501640319e+000dB,-2.83641976648660e-004°)
1.86208713666286e+001	(6.01994501639817e+000dB,-2.90248847021124e-004°)
1.90546071796324e+001	(6.01994501639292e+000dB,-2.97009611174165e-004°)
1.94984459975804e+001	(6.01994501638742e+000dB,-3.03927853754426e-004°)
1.99526231496887e+001	(6.01994501638166e+000dB,-3.11007242905697e-004°)
2.04173794466952e+001	(6.01994501637563e+000dB,-3.18251532213810e-004°)
2.08929613085403e+001	(6.01994501636932e+000dB,-3.25664562696847e-004°)
2.13796208950222e+001	(6.01994501636271e+000dB,-3.33250264841691e-004°)
2.18776162394954e+001	(6.01994501635578e+000dB,-3.41012660688026e-004°)
2.23872113856833e+001	(6.01994501634853e+000dB,-3.48955865960877e-004°)
2.29086765276776e+001	(6.01994501634093e+000dB,-3.57084092252820e-004°)
2.34422881531991e+001	(6.01994501633300e+000dB,-3.65401649257022e-004°)
2.39883291901948e+001	(6.01994501632466e+000dB,-3.73912947052302e-004°)
2.45470891568502e+001	(6.01994501631595e+000dB,-3.82622498441409e-004°)
2.51188643150957e+001	(6.01994501630682e+000dB,-3.91534921343774e-004°)
2.57039578276885e+001	(6.01994501629726e+000dB,-4.00654941243986e-004°)
2.63026799189537e+001	(6.01994501628725e+000dB,-4.09987393697313e-004°)
2.69153480392690e+001	(6.01994501627677e+000dB,-4.19537226893573e-004°)
2.75422870333815e+001	(6.01994501626580e+000dB,-4.29309504280733e-004°)
2.81838293126444e+001	(6.01994501625430e+000dB,-4.39309407249611e-004°)
2.88403150312659e+001	(6.01994501624227e+000dB,-4.49542237881123e-004°)
2.95120922666637e+001	(6.01994501622968e+000dB,-4.60013421757517e-004°)
3.01995172040200e+001	(6.01994501621648e+000dB,-4.70728510839081e-004°)
3.09029543251358e+001	(6.01994501620266e+000dB,-4.81693186407875e-004°)
3.16227766016837e+001	(6.01994501618819e+000dB,-4.92913262080019e-004°)
3.23593656929627e+001	(6.01994501617305e+000dB,-5.04394686888144e-004°)
3.31131121482590e+001	(6.01994501615719e+000dB,-5.16143548435654e-004°)
3.38844156139201e+001	(6.01994501614058e+000dB,-5.28166076124453e-004°)
3.46736850452530e+001	(6.01994501612318e+000dB,-5.40468644457855e-004°)
3.54813389233574e+001	(6.01994501610497e+000dB,-5.53057776420428e-004°)
3.63078054770100e+001	(6.01994501608590e+000dB,-5.65940146936572e-004°)
3.71535229097171e+001	(6.01994501606594e+000dB,-5.79122586409648e-004°)
3.80189396320559e+001	(6.01994501604502e+000dB,-5.92612084343546e-004°)
3.89045144994279e+001	(6.01994501602313e+000dB,-6.06415793048623e-004°)
3.98107170553495e+001	(6.01994501600019e+000dB,-6.20541031433939e-004°)
4.07380277804111e+001	(6.01994501597619e+000dB,-6.34995288887852e-004°)
4.16869383470333e+001	(6.01994501595105e+000dB,-6.49786229248978e-004°)
4.26579518801591e+001	(6.01994501592472e+000dB,-6.64921694869671e-004°)
4.36515832240164e+001	(6.01994501589716e+000dB,-6.80409710774137e-004°)
4.46683592150961e+001	(6.01994501586830e+000dB,-6.96258488913407e-004°)
4.57088189614873e+001	(6.01994501583808e+000dB,-7.12476432519423e-004°)
4.67735141287196e+001	(6.01994501580643e+000dB,-7.29072140560546e-004°)
4.78630092322636e+001	(6.01994501577328e+000dB,-7.46054412300838e-004°)
4.89778819368444e+001	(6.01994501573858e+000dB,-7.63432251965551e-004°)
5.01187233627270e+001	(6.01994501570224e+000dB,-7.81214873515284e-004°)
5.12861383991362e+001	(6.01994501566419e+000dB,-7.99411705531351e-004°)
5.24807460249770e+001	(6.01994501562435e+000dB,-8.18032396214936e-004°)
5.37031796370250e+001	(6.01994501558263e+000dB,-8.37086818502696e-004°)
5.49540873857622e+001	(6.01994501553893e+000dB,-8.56585075301528e-004°)
5.62341325190346e+001	(6.01994501549319e+000dB,-8.76537504845258e-004°)
5.75439937337154e+001	(6.01994501544528e+000dB,-8.96954686176113e-004°)
5.88843655355586e+001	(6.01994501539513e+000dB,-9.17847444753866e-004°)
6.02559586074355e+001	(6.01994501534260e+000dB,-9.39226858195640e-004°)
6.16595001861479e+001	(6.01994501528760e+000dB,-9.61104262149411e-004°)
6.30957344480190e+001	(6.01994501523000e+000dB,-9.83491256304310e-004°)
6.45654229034652e+001	(6.01994501516971e+000dB,-1.00639971054094e-003°)
6.60693448007593e+001	(6.01994501510655e+000dB,-1.02984177122493e-003°)
6.76082975391978e+001	(6.01994501504042e+000dB,-1.05382986764712e-003°)
6.91830970918933e+001	(6.01994501497119e+000dB,-1.07837671861372e-003°)
7.07945784384134e+001	(6.01994501489868e+000dB,-1.10349533919000e-003°)
7.24435960074986e+001	(6.01994501482275e+000dB,-1.12919904760102e-003°)
7.41310241300914e+001	(6.01994501474326e+000dB,-1.15550147229317e-003°)
7.58577575029180e+001	(6.01994501466002e+000dB,-1.18241655916014e-003°)
7.76247116628688e+001	(6.01994501457285e+000dB,-1.20995857893720e-003°)
7.94328234724277e+001	(6.01994501448156e+000dB,-1.23814213476774e-003°)
8.12830516164095e+001	(6.01994501438599e+000dB,-1.26698216994607e-003°)
8.31763771102667e+001	(6.01994501428590e+000dB,-1.29649397584052e-003°)
8.51138038202372e+001	(6.01994501418111e+000dB,-1.32669320000114e-003°)
8.70963589956076e+001	(6.01994501407136e+000dB,-1.35759585445626e-003°)
8.91250938133741e+001	(6.01994501395645e+000dB,-1.38921832420224e-003°)
9.12010839355905e+001	(6.01994501383612e+000dB,-1.42157737589104e-003°)
9.33254300796986e+001	(6.01994501371012e+000dB,-1.45469016672010e-003°)
9.54992586021431e+001	(6.01994501357819e+000dB,-1.48857425352932e-003°)
9.77237220955805e+001	(6.01994501344004e+000dB,-1.52324760210996e-003°)
9.99999999999995e+001	(6.01994501329537e+000dB,-1.55872859673027e-003°)
1.02329299228075e+002	(6.01994501314388e+000dB,-1.59503604988316e-003°)
1.04712854805089e+002	(6.01994501298527e+000dB,-1.63218921226074e-003°)
1.07151930523760e+002	(6.01994501281917e+000dB,-1.67020778296137e-003°)
1.09647819614318e+002	(6.01994501264524e+000dB,-1.70911191993433e-003°)
1.12201845430196e+002	(6.01994501246311e+000dB,-1.74892225066785e-003°)
1.14815362149688e+002	(6.01994501227242e+000dB,-1.78965988312610e-003°)
1.17489755493952e+002	(6.01994501207272e+000dB,-1.83134641694086e-003°)
1.20226443461741e+002	(6.01994501186361e+000dB,-1.87400395486398e-003°)
1.23026877081237e+002	(6.01994501164465e+000dB,-1.91765511448650e-003°)
1.25892541179416e+002	(6.01994501141538e+000dB,-1.96232304023085e-003°)
1.28824955169313e+002	(6.01994501117529e+000dB,-2.00803141562229e-003°)
1.31825673855640e+002	(6.01994501092390e+000dB,-2.05480447584625e-003°)
1.34896288259165e+002	(6.01994501066065e+000dB,-2.10266702059811e-003°)
1.38038426460288e+002	(6.01994501038500e+000dB,-2.15164442723237e-003°)
1.41253754462275e+002	(6.01994501009634e+000dB,-2.20176266421804e-003°)
1.44543977074592e+002	(6.01994500979410e+000dB,-2.25304830490746e-003°)
1.47910838816820e+002	(6.01994500947760e+000dB,-2.30552854162583e-003°)
1.51356124843620e+002	(6.01994500914620e+000dB,-2.35923120008897e-003°)
1.54881661891247e+002	(6.01994500879917e+000dB,-2.41418475415685e-003°)
1.58489319246110e+002	(6.01994500843579e+000dB,-2.47041834093084e-003°)
1.62181009735892e+002	(6.01994500805527e+000dB,-2.52796177620255e-003°)
1.65958690743755e+002	(6.01994500765684e+000dB,-2.58684557026257e-003°)
1.69824365246173e+002	(6.01994500723962e+000dB,-2.64710094407743e-003°)
1.73780082874936e+002	(6.01994500680274e+000dB,-2.70875984584337e-003°)
1.77827941003891e+002	(6.01994500634527e+000dB,-2.77185496792569e-003°)
1.81970085860997e+002	(6.01994500586623e+000dB,-2.83641976419266e-003°)
1.86208713666286e+002	(6.01994500536462e+000dB,-2.90248846775324e-003°)
1.90546071796323e+002	(6.01994500483937e+000dB,-2.97009610910785e-003°)
1.94984459975803e+002	(6.01994500428937e+000dB,-3.03927853472210e-003°)
1.99526231496887e+002	(6.01994500371345e+000dB,-3.11007242603297e-003°)
2.04173794466952e+002	(6.01994500311038e+000dB,-3.18251531889783e-003°)
2.08929613085403e+002	(6.01994500247891e+000dB,-3.25664562349646e-003°)
2.13796208950222e+002	(6.01994500181765e+000dB,-3.33250264469658e-003°)
2.18776162394954e+002	(6.01994500112524e+000dB,-3.41012660289386e-003°)
2.23872113856832e+002	(6.01994500040019e+000dB,-3.48955865533727e-003°)
2.29086765276776e+002	(6.01994499964098e+000dB,-3.57084091795120e-003°)
2.34422881531991e+002	(6.01994499884598e+000dB,-3.65401648766587e-003°)
2.39883291901947e+002	(6.01994499801352e+000dB,-3.73912946526791e-003°)
2.45470891568501e+002	(6.01994499714184e+000dB,-3.82622497878315e-003°)
2.51188643150956e+002	(6.01994499622906e+000dB,-3.91534920740407e-003°)
2.57039578276885e+002	(6.01994499527326e+000dB,-4.00654940597467e-003°)
2.63026799189536e+002	(6.01994499427243e+000dB,-4.09987393004556e-003°)
2.69153480392690e+002	(6.01994499322441e+000dB,-4.19537226151271e-003°)
2.75422870333815e+002	(6.01994499212703e+000dB,-4.29309503485342e-003°)
2.81838293126443e+002	(6.01994499097791e+000dB,-4.39309406397334e-003°)
2.88403150312659e+002	(6.01994498977463e+000dB,-4.49542236967892e-003°)
2.95120922666637e+002	(6.01994498851465e+000dB,-4.60013420778971e-003°)
3.01995172040200e+002	(6.01994498719528e+000dB,-4.70728509790551e-003°)
3.09029543251357e+002	(6.01994498581375e+000dB,-4.81693185284356e-003°)
3.16227766016836e+002	(6.01994498436709e+000dB,-4.92913260876146e-003°)
3.23593656929626e+002	(6.01994498285226e+000dB,-5.04394685598170e-003°)
3.31131121482589e+002	(6.01994498126605e+000dB,-5.16143547053424e-003°)
3.38844156139200e+002	(6.01994497960505e+000dB,-5.28166074643366e-003°)
3.46736850452529e+002	(6.01994497786580e+000dB,-5.40468642870842e-003°)
3.54813389233573e+002	(6.01994497604458e+000dB,-5.53057774719913e-003°)
3.63078054770099e+002	(6.01994497413752e+000dB,-5.65940145114437e-003°)
3.71535229097170e+002	(6.01994497214058e+000dB,-5.79122584457194e-003°)
3.80189396320558e+002	(6.01994497004953e+000dB,-5.92612082251455e-003°)
3.89045144994278e+002	(6.01994496785993e+000dB,-6.06415790806907e-003°)
3.98107170553494e+002	(6.01994496556715e+000dB,-6.20541029031898e-003°)
4.07380277804110e+002	(6.01994496316630e+000dB,-6.34995286314018e-003°)
4.16869383470332e+002	(6.01994496065231e+000dB,-6.49786226491066e-003°)
4.26579518801589e+002	(6.01994495801983e+000dB,-6.64921691914514e-003°)
4.36515832240163e+002	(6.01994495526330e+000dB,-6.80409707607630e-003°)
4.46683592150960e+002	(6.01994495237685e+000dB,-6.96258485520433e-003°)
4.57088189614872e+002	(6.01994494935436e+000dB,-7.12476428883787e-003°)
4.67735141287195e+002	(6.01994494618943e+000dB,-7.29072136664891e-003°)
4.78630092322635e+002	(6.01994494287535e+000dB,-7.46054408126570e-003°)
4.89778819368443e+002	(6.01994493940507e+000dB,-7.63432247492741e-003°)
5.01187233627268e+002	(6.01994493577125e+000dB,-7.81214868722583e-003°)
5.12861383991361e+002	(6.01994493196616e+000dB,-7.99411700395880e-003°)
5.24807460249769e+002	(6.01994492798174e+000dB,-8.18032390712178e-003°)
5.37031796370249e+002	(6.01994492380955e+000dB,-8.37086812606385e-003°)
5.49540873857620e+002	(6.01994491944073e+000dB,-8.56585068983518e-003°)
5.62341325190345e+002	(6.01994491486602e+000dB,-8.76537498075388e-003°)
5.75439937337152e+002	(6.01994491007571e+000dB,-8.96954678922066e-003°)
