Freq.	V(v1)	V(vb)	V(vout)
1.00000000000000e+000	(0.00000000000000e+000dB,0.00000000000000e+000°)	(-1.#INF0000000000e+000dB,0.00000000000000e+000°)	(3.69052885175052e-005dB,-3.99734387136943e-003°)
1.02329299228075e+000	(0.00000000000000e+000dB,0.00000000000000e+000°)	(-1.#INF0000000000e+000dB,0.00000000000000e+000°)	(3.69043525336711e-005dB,-4.09045397102488e-003°)
1.04712854805090e+000	(0.00000000000000e+000dB,0.00000000000000e+000°)	(-1.#INF0000000000e+000dB,0.00000000000000e+000°)	(3.69033724416860e-005dB,-4.18573288349255e-003°)
1.07151930523761e+000	(0.00000000000000e+000dB,0.00000000000000e+000°)	(-1.#INF0000000000e+000dB,0.00000000000000e+000°)	(3.69023461586113e-005dB,-4.28323112691109e-003°)
1.09647819614318e+000	(0.00000000000000e+000dB,0.00000000000000e+000°)	(-1.#INF0000000000e+000dB,0.00000000000000e+000°)	(3.69012715108622e-005dB,-4.38300039613766e-003°)
1.12201845430196e+000	(0.00000000000000e+000dB,0.00000000000000e+000°)	(-1.#INF0000000000e+000dB,0.00000000000000e+000°)	(3.69001462091351e-005dB,-4.48509359015721e-003°)
1.14815362149688e+000	(0.00000000000000e+000dB,0.00000000000000e+000°)	(-1.#INF0000000000e+000dB,0.00000000000000e+000°)	(3.68989678734797e-005dB,-4.58956484013020e-003°)
1.17489755493953e+000	(0.00000000000000e+000dB,0.00000000000000e+000°)	(-1.#INF0000000000e+000dB,0.00000000000000e+000°)	(3.68977340159418e-005dB,-4.69646953809369e-003°)
1.20226443461741e+000	(0.00000000000000e+000dB,0.00000000000000e+000°)	(-1.#INF0000000000e+000dB,0.00000000000000e+000°)	(3.68964420000613e-005dB,-4.80586436633090e-003°)
1.23026877081238e+000	(0.00000000000000e+000dB,0.00000000000000e+000°)	(-1.#INF0000000000e+000dB,0.00000000000000e+000°)	(3.68950890948743e-005dB,-4.91780732742486e-003°)
1.25892541179417e+000	(0.00000000000000e+000dB,0.00000000000000e+000°)	(-1.#INF0000000000e+000dB,0.00000000000000e+000°)	(3.68936724286259e-005dB,-5.03235777501217e-003°)
1.28824955169313e+000	(0.00000000000000e+000dB,0.00000000000000e+000°)	(-1.#INF0000000000e+000dB,0.00000000000000e+000°)	(3.68921889984130e-005dB,-5.14957644525310e-003°)
1.31825673855641e+000	(0.00000000000000e+000dB,0.00000000000000e+000°)	(-1.#INF0000000000e+000dB,0.00000000000000e+000°)	(3.68906356528268e-005dB,-5.26952548903459e-003°)
1.34896288259165e+000	(0.00000000000000e+000dB,0.00000000000000e+000°)	(-1.#INF0000000000e+000dB,0.00000000000000e+000°)	(3.68890091015959e-005dB,-5.39226850492357e-003°)
1.38038426460288e+000	(0.00000000000000e+000dB,0.00000000000000e+000°)	(-1.#INF0000000000e+000dB,0.00000000000000e+000°)	(3.68873058963000e-005dB,-5.51787057288765e-003°)
1.41253754462275e+000	(0.00000000000000e+000dB,0.00000000000000e+000°)	(-1.#INF0000000000e+000dB,0.00000000000000e+000°)	(3.68855224207263e-005dB,-5.64639828880143e-003°)
1.44543977074593e+000	(0.00000000000000e+000dB,0.00000000000000e+000°)	(-1.#INF0000000000e+000dB,0.00000000000000e+000°)	(3.68836548908698e-005dB,-5.77791979975644e-003°)
1.47910838816821e+000	(0.00000000000000e+000dB,0.00000000000000e+000°)	(-1.#INF0000000000e+000dB,0.00000000000000e+000°)	(3.68816993472188e-005dB,-5.91250484019366e-003°)
1.51356124843621e+000	(0.00000000000000e+000dB,0.00000000000000e+000°)	(-1.#INF0000000000e+000dB,0.00000000000000e+000°)	(3.68796516431827e-005dB,-6.05022476887757e-003°)
1.54881661891248e+000	(0.00000000000000e+000dB,0.00000000000000e+000°)	(-1.#INF0000000000e+000dB,0.00000000000000e+000°)	(3.68775074335203e-005dB,-6.19115260673153e-003°)
1.58489319246111e+000	(0.00000000000000e+000dB,0.00000000000000e+000°)	(-1.#INF0000000000e+000dB,0.00000000000000e+000°)	(3.68752621666252e-005dB,-6.33536307555436e-003°)
1.62181009735893e+000	(0.00000000000000e+000dB,0.00000000000000e+000°)	(-1.#INF0000000000e+000dB,0.00000000000000e+000°)	(3.68729110903117e-005dB,-6.48293263763885e-003°)
1.65958690743756e+000	(0.00000000000000e+000dB,0.00000000000000e+000°)	(-1.#INF0000000000e+000dB,0.00000000000000e+000°)	(3.68704492035988e-005dB,-6.63393953631302e-003°)
1.69824365246174e+000	(0.00000000000000e+000dB,0.00000000000000e+000°)	(-1.#INF0000000000e+000dB,0.00000000000000e+000°)	(3.68678713029975e-005dB,-6.78846383742574e-003°)
1.73780082874937e+000	(0.00000000000000e+000dB,0.00000000000000e+000°)	(-1.#INF0000000000e+000dB,0.00000000000000e+000°)	(3.68651718976503e-005dB,-6.94658747179866e-003°)
1.77827941003892e+000	(0.00000000000000e+000dB,0.00000000000000e+000°)	(-1.#INF0000000000e+000dB,0.00000000000000e+000°)	(3.68623452768341e-005dB,-7.10839427866700e-003°)
1.81970085860998e+000	(0.00000000000000e+000dB,0.00000000000000e+000°)	(-1.#INF0000000000e+000dB,0.00000000000000e+000°)	(3.68593854443861e-005dB,-7.27397005013213e-003°)
1.86208713666287e+000	(0.00000000000000e+000dB,0.00000000000000e+000°)	(-1.#INF0000000000e+000dB,0.00000000000000e+000°)	(3.68562861167750e-005dB,-7.44340257664971e-003°)
1.90546071796325e+000	(0.00000000000000e+000dB,0.00000000000000e+000°)	(-1.#INF0000000000e+000dB,0.00000000000000e+000°)	(3.68530407211725e-005dB,-7.61678169357723e-003°)
1.94984459975804e+000	(0.00000000000000e+000dB,0.00000000000000e+000°)	(-1.#INF0000000000e+000dB,0.00000000000000e+000°)	(3.68496423761669e-005dB,-7.79419932880590e-003°)
1.99526231496888e+000	(0.00000000000000e+000dB,0.00000000000000e+000°)	(-1.#INF0000000000e+000dB,0.00000000000000e+000°)	(3.68460838744050e-005dB,-7.97574955150197e-003°)
2.04173794466953e+000	(0.00000000000000e+000dB,0.00000000000000e+000°)	(-1.#INF0000000000e+000dB,0.00000000000000e+000°)	(3.68423576652347e-005dB,-8.16152862198334e-003°)
2.08929613085404e+000	(0.00000000000000e+000dB,0.00000000000000e+000°)	(-1.#INF0000000000e+000dB,0.00000000000000e+000°)	(3.68384558412040e-005dB,-8.35163504275809e-003°)
2.13796208950223e+000	(0.00000000000000e+000dB,0.00000000000000e+000°)	(-1.#INF0000000000e+000dB,0.00000000000000e+000°)	(3.68343701322754e-005dB,-8.54616961075165e-003°)
2.18776162394955e+000	(0.00000000000000e+000dB,0.00000000000000e+000°)	(-1.#INF0000000000e+000dB,0.00000000000000e+000°)	(3.68300918711101e-005dB,-8.74523547075066e-003°)
2.23872113856834e+000	(0.00000000000000e+000dB,0.00000000000000e+000°)	(-1.#INF0000000000e+000dB,0.00000000000000e+000°)	(3.68256119834250e-005dB,-8.94893817009158e-003°)
2.29086765276777e+000	(0.00000000000000e+000dB,0.00000000000000e+000°)	(-1.#INF0000000000e+000dB,0.00000000000000e+000°)	(3.68209209552051e-005dB,-9.15738571462322e-003°)
2.34422881531992e+000	(0.00000000000000e+000dB,0.00000000000000e+000°)	(-1.#INF0000000000e+000dB,0.00000000000000e+000°)	(3.68160088616339e-005dB,-9.37068862597276e-003°)
2.39883291901949e+000	(0.00000000000000e+000dB,0.00000000000000e+000°)	(-1.#INF0000000000e+000dB,0.00000000000000e+000°)	(3.68108652533030e-005dB,-9.58896000014573e-003°)
2.45470891568503e+000	(0.00000000000000e+000dB,0.00000000000000e+000°)	(-1.#INF0000000000e+000dB,0.00000000000000e+000°)	(3.68054792449295e-005dB,-9.81231556749087e-003°)
2.51188643150958e+000	(0.00000000000000e+000dB,0.00000000000000e+000°)	(-1.#INF0000000000e+000dB,0.00000000000000e+000°)	(3.67998393957805e-005dB,-1.00408737540618e-002°)
2.57039578276886e+000	(0.00000000000000e+000dB,0.00000000000000e+000°)	(-1.#INF0000000000e+000dB,0.00000000000000e+000°)	(3.67939337463169e-005dB,-1.02747557444079e-002°)
2.63026799189538e+000	(0.00000000000000e+000dB,0.00000000000000e+000°)	(-1.#INF0000000000e+000dB,0.00000000000000e+000°)	(3.67877497776919e-005dB,-1.05140855458279e-002°)
2.69153480392691e+000	(0.00000000000000e+000dB,0.00000000000000e+000°)	(-1.#INF0000000000e+000dB,0.00000000000000e+000°)	(3.67812743654638e-005dB,-1.07589900541202e-002°)
2.75422870333816e+000	(0.00000000000000e+000dB,0.00000000000000e+000°)	(-1.#INF0000000000e+000dB,0.00000000000000e+000°)	(3.67744937795956e-005dB,-1.10095991208642e-002°)
2.81838293126445e+000	(0.00000000000000e+000dB,0.00000000000000e+000°)	(-1.#INF0000000000e+000dB,0.00000000000000e+000°)	(3.67673936304529e-005dB,-1.12660456222694e-002°)
2.88403150312660e+000	(0.00000000000000e+000dB,0.00000000000000e+000°)	(-1.#INF0000000000e+000dB,0.00000000000000e+000°)	(3.67599588630184e-005dB,-1.15284655296282e-002°)
2.95120922666638e+000	(0.00000000000000e+000dB,0.00000000000000e+000°)	(-1.#INF0000000000e+000dB,0.00000000000000e+000°)	(3.67521737028892e-005dB,-1.17969979814088e-002°)
3.01995172040201e+000	(0.00000000000000e+000dB,0.00000000000000e+000°)	(-1.#INF0000000000e+000dB,0.00000000000000e+000°)	(3.67440216447053e-005dB,-1.20717853570288e-002°)
3.09029543251359e+000	(0.00000000000000e+000dB,0.00000000000000e+000°)	(-1.#INF0000000000e+000dB,0.00000000000000e+000°)	(3.67354853885040e-005dB,-1.23529733523461e-002°)
3.16227766016837e+000	(0.00000000000000e+000dB,0.00000000000000e+000°)	(-1.#INF0000000000e+000dB,0.00000000000000e+000°)	(3.67265468358628e-005dB,-1.26407110569086e-002°)
3.23593656929628e+000	(0.00000000000000e+000dB,0.00000000000000e+000°)	(-1.#INF0000000000e+000dB,0.00000000000000e+000°)	(3.67171870146822e-005dB,-1.29351510330032e-002°)
3.31131121482591e+000	(0.00000000000000e+000dB,0.00000000000000e+000°)	(-1.#INF0000000000e+000dB,0.00000000000000e+000°)	(3.67073860791854e-005dB,-1.32364493965460e-002°)
3.38844156139202e+000	(0.00000000000000e+000dB,0.00000000000000e+000°)	(-1.#INF0000000000e+000dB,0.00000000000000e+000°)	(3.66971232443445e-005dB,-1.35447658998570e-002°)
3.46736850452531e+000	(0.00000000000000e+000dB,0.00000000000000e+000°)	(-1.#INF0000000000e+000dB,0.00000000000000e+000°)	(3.66863767376643e-005dB,-1.38602640163626e-002°)
3.54813389233575e+000	(0.00000000000000e+000dB,0.00000000000000e+000°)	(-1.#INF0000000000e+000dB,0.00000000000000e+000°)	(3.66751237663951e-005dB,-1.41831110272706e-002°)
3.63078054770101e+000	(0.00000000000000e+000dB,0.00000000000000e+000°)	(-1.#INF0000000000e+000dB,0.00000000000000e+000°)	(3.66633404481019e-005dB,-1.45134781102651e-002°)
3.71535229097172e+000	(0.00000000000000e+000dB,0.00000000000000e+000°)	(-1.#INF0000000000e+000dB,0.00000000000000e+000°)	(3.66510018106638e-005dB,-1.48515404302668e-002°)
3.80189396320560e+000	(0.00000000000000e+000dB,0.00000000000000e+000°)	(-1.#INF0000000000e+000dB,0.00000000000000e+000°)	(3.66380816669121e-005dB,-1.51974772323069e-002°)
3.89045144994280e+000	(0.00000000000000e+000dB,0.00000000000000e+000°)	(-1.#INF0000000000e+000dB,0.00000000000000e+000°)	(3.66245526107733e-005dB,-1.55514719365652e-002°)
3.98107170553496e+000	(0.00000000000000e+000dB,0.00000000000000e+000°)	(-1.#INF0000000000e+000dB,0.00000000000000e+000°)	(3.66103859555520e-005dB,-1.59137122356215e-002°)
4.07380277804112e+000	(0.00000000000000e+000dB,0.00000000000000e+000°)	(-1.#INF0000000000e+000dB,0.00000000000000e+000°)	(3.65955516413557e-005dB,-1.62843901939720e-002°)
4.16869383470335e+000	(0.00000000000000e+000dB,0.00000000000000e+000°)	(-1.#INF0000000000e+000dB,0.00000000000000e+000°)	(3.65800182138805e-005dB,-1.66637023498639e-002°)
4.26579518801592e+000	(0.00000000000000e+000dB,0.00000000000000e+000°)	(-1.#INF0000000000e+000dB,0.00000000000000e+000°)	(3.65637527164056e-005dB,-1.70518498195023e-002°)
4.36515832240165e+000	(0.00000000000000e+000dB,0.00000000000000e+000°)	(-1.#INF0000000000e+000dB,0.00000000000000e+000°)	(3.65467206492927e-005dB,-1.74490384036840e-002°)
4.46683592150962e+000	(0.00000000000000e+000dB,0.00000000000000e+000°)	(-1.#INF0000000000e+000dB,0.00000000000000e+000°)	(3.65288858831964e-005dB,-1.78554786969150e-002°)
4.57088189614874e+000	(0.00000000000000e+000dB,0.00000000000000e+000°)	(-1.#INF0000000000e+000dB,0.00000000000000e+000°)	(3.65102105915616e-005dB,-1.82713861990700e-002°)
4.67735141287197e+000	(0.00000000000000e+000dB,0.00000000000000e+000°)	(-1.#INF0000000000e+000dB,0.00000000000000e+000°)	(3.64906551619055e-005dB,-1.86969814296527e-002°)
4.78630092322637e+000	(0.00000000000000e+000dB,0.00000000000000e+000°)	(-1.#INF0000000000e+000dB,0.00000000000000e+000°)	(3.64701781148147e-005dB,-1.91324900447171e-002°)
4.89778819368445e+000	(0.00000000000000e+000dB,0.00000000000000e+000°)	(-1.#INF0000000000e+000dB,0.00000000000000e+000°)	(3.64487360132986e-005dB,-1.95781429565128e-002°)
5.01187233627271e+000	(0.00000000000000e+000dB,0.00000000000000e+000°)	(-1.#INF0000000000e+000dB,0.00000000000000e+000°)	(3.64262833721429e-005dB,-2.00341764559167e-002°)
5.12861383991364e+000	(0.00000000000000e+000dB,0.00000000000000e+000°)	(-1.#INF0000000000e+000dB,0.00000000000000e+000°)	(3.64027725769063e-005dB,-2.05008323377164e-002°)
5.24807460249771e+000	(0.00000000000000e+000dB,0.00000000000000e+000°)	(-1.#INF0000000000e+000dB,0.00000000000000e+000°)	(3.63781537508438e-005dB,-2.09783580288127e-002°)
5.37031796370252e+000	(0.00000000000000e+000dB,0.00000000000000e+000°)	(-1.#INF0000000000e+000dB,0.00000000000000e+000°)	(3.63523746719749e-005dB,-2.14670067194067e-002°)
5.49540873857623e+000	(0.00000000000000e+000dB,0.00000000000000e+000°)	(-1.#INF0000000000e+000dB,0.00000000000000e+000°)	(3.63253806650794e-005dB,-2.19670374972440e-002°)
5.62341325190348e+000	(0.00000000000000e+000dB,0.00000000000000e+000°)	(-1.#INF0000000000e+000dB,0.00000000000000e+000°)	(3.62971144724775e-005dB,-2.24787154849849e-002°)
5.75439937337156e+000	(0.00000000000000e+000dB,0.00000000000000e+000°)	(-1.#INF0000000000e+000dB,0.00000000000000e+000°)	(3.62675161344539e-005dB,-2.30023119807751e-002°)
5.88843655355588e+000	(0.00000000000000e+000dB,0.00000000000000e+000°)	(-1.#INF0000000000e+000dB,0.00000000000000e+000°)	(3.62365228658242e-005dB,-2.35381046020894e-002°)
6.02559586074356e+000	(0.00000000000000e+000dB,0.00000000000000e+000°)	(-1.#INF0000000000e+000dB,0.00000000000000e+000°)	(3.62040689344301e-005dB,-2.40863774329273e-002°)
6.16595001861481e+000	(0.00000000000000e+000dB,0.00000000000000e+000°)	(-1.#INF0000000000e+000dB,0.00000000000000e+000°)	(3.61700854952754e-005dB,-2.46474211744363e-002°)
6.30957344480192e+000	(0.00000000000000e+000dB,0.00000000000000e+000°)	(-1.#INF0000000000e+000dB,0.00000000000000e+000°)	(3.61345004670925e-005dB,-2.52215332990435e-002°)
6.45654229034654e+000	(0.00000000000000e+000dB,0.00000000000000e+000°)	(-1.#INF0000000000e+000dB,0.00000000000000e+000°)	(3.60972383645500e-005dB,-2.58090182081779e-002°)
6.60693448007594e+000	(0.00000000000000e+000dB,0.00000000000000e+000°)	(-1.#INF0000000000e+000dB,0.00000000000000e+000°)	(3.60582201593899e-005dB,-2.64101873936659e-002°)
6.76082975391980e+000	(0.00000000000000e+000dB,0.00000000000000e+000°)	(-1.#INF0000000000e+000dB,0.00000000000000e+000°)	(3.60173630759907e-005dB,-2.70253596028862e-002°)
6.91830970918935e+000	(0.00000000000000e+000dB,0.00000000000000e+000°)	(-1.#INF0000000000e+000dB,0.00000000000000e+000°)	(3.59745804679337e-005dB,-2.76548610077716e-002°)
7.07945784384136e+000	(0.00000000000000e+000dB,0.00000000000000e+000°)	(-1.#INF0000000000e+000dB,0.00000000000000e+000°)	(3.59297815672789e-005dB,-2.82990253777474e-002°)
7.24435960074988e+000	(0.00000000000000e+000dB,0.00000000000000e+000°)	(-1.#INF0000000000e+000dB,0.00000000000000e+000°)	(3.58828713669170e-005dB,-2.89581942566976e-002°)
7.41310241300916e+000	(0.00000000000000e+000dB,0.00000000000000e+000°)	(-1.#INF0000000000e+000dB,0.00000000000000e+000°)	(3.58337503563442e-005dB,-2.96327171440529e-002°)
7.58577575029182e+000	(0.00000000000000e+000dB,0.00000000000000e+000°)	(-1.#INF0000000000e+000dB,0.00000000000000e+000°)	(3.57823143422982e-005dB,-3.03229516800975e-002°)
7.76247116628690e+000	(0.00000000000000e+000dB,0.00000000000000e+000°)	(-1.#INF0000000000e+000dB,0.00000000000000e+000°)	(3.57284542211772e-005dB,-3.10292638355909e-002°)
7.94328234724279e+000	(0.00000000000000e+000dB,0.00000000000000e+000°)	(-1.#INF0000000000e+000dB,0.00000000000000e+000°)	(3.56720557591734e-005dB,-3.17520281058073e-002°)
8.12830516164097e+000	(0.00000000000000e+000dB,0.00000000000000e+000°)	(-1.#INF0000000000e+000dB,0.00000000000000e+000°)	(3.56129993184052e-005dB,-3.24916277090940e-002°)
8.31763771102669e+000	(0.00000000000000e+000dB,0.00000000000000e+000°)	(-1.#INF0000000000e+000dB,0.00000000000000e+000°)	(3.55511596312645e-005dB,-3.32484547900552e-002°)
8.51138038202374e+000	(0.00000000000000e+000dB,0.00000000000000e+000°)	(-1.#INF0000000000e+000dB,0.00000000000000e+000°)	(3.54864055342630e-005dB,-3.40229106274676e-002°)
8.70963589956078e+000	(0.00000000000000e+000dB,0.00000000000000e+000°)	(-1.#INF0000000000e+000dB,0.00000000000000e+000°)	(3.54185996690914e-005dB,-3.48154058470393e-002°)
8.91250938133743e+000	(0.00000000000000e+000dB,0.00000000000000e+000°)	(-1.#INF0000000000e+000dB,0.00000000000000e+000°)	(3.53475982106791e-005dB,-3.56263606391240e-002°)
9.12010839355907e+000	(0.00000000000000e+000dB,0.00000000000000e+000°)	(-1.#INF0000000000e+000dB,0.00000000000000e+000°)	(3.52732505682534e-005dB,-3.64562049815065e-002°)
9.33254300796988e+000	(0.00000000000000e+000dB,0.00000000000000e+000°)	(-1.#INF0000000000e+000dB,0.00000000000000e+000°)	(3.51953990111813e-005dB,-3.73053788673767e-002°)
9.54992586021433e+000	(0.00000000000000e+000dB,0.00000000000000e+000°)	(-1.#INF0000000000e+000dB,0.00000000000000e+000°)	(3.51138784413876e-005dB,-3.81743325386138e-002°)
9.77237220955808e+000	(0.00000000000000e+000dB,0.00000000000000e+000°)	(-1.#INF0000000000e+000dB,0.00000000000000e+000°)	(3.50285159227647e-005dB,-3.90635267245043e-002°)
9.99999999999997e+000	(0.00000000000000e+000dB,0.00000000000000e+000°)	(-1.#INF0000000000e+000dB,0.00000000000000e+000°)	(3.49391303938024e-005dB,-3.99734328860193e-002°)
1.02329299228075e+001	(0.00000000000000e+000dB,0.00000000000000e+000°)	(-1.#INF0000000000e+000dB,0.00000000000000e+000°)	(3.48455322567852e-005dB,-4.09045334657825e-002°)
1.04712854805090e+001	(0.00000000000000e+000dB,0.00000000000000e+000°)	(-1.#INF0000000000e+000dB,0.00000000000000e+000°)	(3.47475229824185e-005dB,-4.18573221438595e-002°)
1.07151930523760e+001	(0.00000000000000e+000dB,0.00000000000000e+000°)	(-1.#INF0000000000e+000dB,0.00000000000000e+000°)	(3.46448946681662e-005dB,-4.28323040995046e-002°)
1.09647819614318e+001	(0.00000000000000e+000dB,0.00000000000000e+000°)	(-1.#INF0000000000e+000dB,0.00000000000000e+000°)	(3.45374296370912e-005dB,-4.38299962790052e-002°)
1.12201845430196e+001	(0.00000000000000e+000dB,0.00000000000000e+000°)	(-1.#INF0000000000e+000dB,0.00000000000000e+000°)	(3.44248999325476e-005dB,-4.48509276697629e-002°)
1.14815362149688e+001	(0.00000000000000e+000dB,0.00000000000000e+000°)	(-1.#INF0000000000e+000dB,0.00000000000000e+000°)	(3.43070668707328e-005dB,-4.58956395807597e-002°)
1.17489755493953e+001	(0.00000000000000e+000dB,0.00000000000000e+000°)	(-1.#INF0000000000e+000dB,0.00000000000000e+000°)	(3.41836805160931e-005dB,-4.69646859295557e-002°)
1.20226443461741e+001	(0.00000000000000e+000dB,0.00000000000000e+000°)	(-1.#INF0000000000e+000dB,0.00000000000000e+000°)	(3.40544791451575e-005dB,-4.80586335359717e-002°)
1.23026877081238e+001	(0.00000000000000e+000dB,0.00000000000000e+000°)	(-1.#INF0000000000e+000dB,0.00000000000000e+000°)	(3.39191887007282e-005dB,-4.91780624226114e-002°)
1.25892541179416e+001	(0.00000000000000e+000dB,0.00000000000000e+000°)	(-1.#INF0000000000e+000dB,0.00000000000000e+000°)	(3.37775222248550e-005dB,-5.03235661223833e-002°)
1.28824955169313e+001	(0.00000000000000e+000dB,0.00000000000000e+000°)	(-1.#INF0000000000e+000dB,0.00000000000000e+000°)	(3.36291792165929e-005dB,-5.14957519931850e-002°)
1.31825673855640e+001	(0.00000000000000e+000dB,0.00000000000000e+000°)	(-1.#INF0000000000e+000dB,0.00000000000000e+000°)	(3.34738450186888e-005dB,-5.26952415399165e-002°)
1.34896288259165e+001	(0.00000000000000e+000dB,0.00000000000000e+000°)	(-1.#INF0000000000e+000dB,0.00000000000000e+000°)	(3.33111901560516e-005dB,-5.39226707439932e-002°)
1.38038426460288e+001	(0.00000000000000e+000dB,0.00000000000000e+000°)	(-1.#INF0000000000e+000dB,0.00000000000000e+000°)	(3.31408696086483e-005dB,-5.51786904005333e-002°)
1.41253754462275e+001	(0.00000000000000e+000dB,0.00000000000000e+000°)	(-1.#INF0000000000e+000dB,0.00000000000000e+000°)	(3.29625221114000e-005dB,-5.64639664633990e-002°)
