time	V(v1)	V(vout)
0.000000000000000e+000	2.500000e+000	2.499919e+000
1.000000003627494e-015	2.500000e+000	2.499919e+000
2.000000007254988e-015	2.500000e+000	2.499919e+000
1.330120000679295e-010	2.502965e+000	2.499919e+000
2.660220001358518e-010	2.505931e+000	2.499920e+000
3.990320002037741e-010	2.508896e+000	2.499921e+000
5.320420002716963e-010	2.511861e+000	2.499921e+000
6.650520003396186e-010	2.514826e+000	2.499922e+000
7.980620004075409e-010	2.517791e+000	2.499923e+000
9.310720004754628e-010	2.520756e+000	2.499924e+000
1.031072000475463e-009	2.522984e+000	2.499925e+000
1.131072000475463e-009	2.525213e+000	2.499926e+000
1.231072000475463e-009	2.527442e+000	2.499927e+000
1.331072000475463e-009	2.529670e+000	2.499928e+000
1.431072000475463e-009	2.531898e+000	2.499929e+000
1.531072000475463e-009	2.534127e+000	2.499930e+000
1.731072000475463e-009	2.538582e+000	2.499933e+000
1.931072000475463e-009	2.543037e+000	2.499937e+000
2.131072000475463e-009	2.547491e+000	2.499942e+000
2.331072000475464e-009	2.551944e+000	2.499947e+000
2.531072000475464e-009	2.556397e+000	2.499953e+000
2.731072000475464e-009	2.560848e+000	2.499960e+000
3.031072000475464e-009	2.567522e+000	2.499973e+000
3.331072000475464e-009	2.574193e+000	2.499989e+000
3.631072000475464e-009	2.580861e+000	2.500007e+000
3.931072000475465e-009	2.587526e+000	2.500029e+000
4.402500571904037e-009	2.597993e+000	2.500068e+000
4.873929143332608e-009	2.608446e+000	2.500120e+000
5.345357714761180e-009	2.618886e+000	2.500185e+000
5.816786286189752e-009	2.629313e+000	2.500263e+000
6.288214857618324e-009	2.639725e+000	2.500353e+000
6.759643429046896e-009	2.650124e+000	2.500456e+000
7.231072000475467e-009	2.660509e+000	2.500572e+000
7.545357714761179e-009	2.667422e+000	2.500659e+000
7.859643429046892e-009	2.674325e+000	2.500755e+000
8.173929143332604e-009	2.681219e+000	2.500859e+000
8.488214857618316e-009	2.688105e+000	2.500970e+000
8.802500571904029e-009	2.694981e+000	2.501090e+000
9.116786286189741e-009	2.701848e+000	2.501218e+000
9.431072000475452e-009	2.708707e+000	2.501354e+000
9.631072000475450e-009	2.713065e+000	2.501446e+000
9.831072000475449e-009	2.717420e+000	2.501541e+000
1.003107200047545e-008	2.721769e+000	2.501640e+000
1.023107200047545e-008	2.726115e+000	2.501743e+000
1.043107200047544e-008	2.730455e+000	2.501850e+000
1.063107200047544e-008	2.734792e+000	2.501960e+000
1.083107200047544e-008	2.739124e+000	2.502074e+000
1.093107200047544e-008	2.741288e+000	2.502133e+000
1.103107200047544e-008	2.743451e+000	2.502193e+000
1.113107200047544e-008	2.745612e+000	2.502253e+000
1.133107200047544e-008	2.749932e+000	2.502378e+000
1.153107200047544e-008	2.754247e+000	2.502506e+000
1.173107200047543e-008	2.758556e+000	2.502638e+000
1.193107200047543e-008	2.762861e+000	2.502775e+000
1.213107200047543e-008	2.767160e+000	2.502915e+000
1.233107200047543e-008	2.771454e+000	2.503060e+000
1.253107200047543e-008	2.775743e+000	2.503209e+000
1.273107200047543e-008	2.780026e+000	2.503362e+000
1.283107200047543e-008	2.782166e+000	2.503440e+000
1.293107200047543e-008	2.784303e+000	2.503519e+000
1.303107200047543e-008	2.786440e+000	2.503599e+000
1.313107200047542e-008	2.788575e+000	2.503680e+000
1.323107200047542e-008	2.790709e+000	2.503763e+000
1.333107200047542e-008	2.792841e+000	2.503846e+000
1.343107200047542e-008	2.794972e+000	2.503931e+000
1.353107200047542e-008	2.797102e+000	2.504016e+000
1.363107200047542e-008	2.799230e+000	2.504103e+000
1.373107200047542e-008	2.801356e+000	2.504191e+000
1.383107200047542e-008	2.803481e+000	2.504280e+000
1.393107200047542e-008	2.805605e+000	2.504370e+000
1.403107200047542e-008	2.807727e+000	2.504461e+000
1.413107200047542e-008	2.809847e+000	2.504554e+000
1.423107200047542e-008	2.811966e+000	2.504647e+000
1.433107200047542e-008	2.814083e+000	2.504742e+000
1.443107200047541e-008	2.816199e+000	2.504838e+000
1.453107200047541e-008	2.818313e+000	2.504935e+000
1.463107200047541e-008	2.820426e+000	2.505033e+000
1.473107200047541e-008	2.822537e+000	2.505132e+000
1.493107200047541e-008	2.826754e+000	2.505334e+000
1.513107200047541e-008	2.830965e+000	2.505540e+000
1.543107200047542e-008	2.837268e+000	2.505858e+000
1.553107200047542e-008	2.839366e+000	2.505967e+000
1.563107200047542e-008	2.841463e+000	2.506077e+000
1.573107200047542e-008	2.843557e+000	2.506188e+000
1.583107200047542e-008	2.845650e+000	2.506300e+000
1.593107200047542e-008	2.847741e+000	2.506413e+000
1.603107200047542e-008	2.849830e+000	2.506528e+000
1.613107200047542e-008	2.851918e+000	2.506644e+000
1.623107200047542e-008	2.854004e+000	2.506761e+000
1.633107200047542e-008	2.856088e+000	2.506879e+000
1.643107200047542e-008	2.858170e+000	2.506998e+000
1.653107200047542e-008	2.860251e+000	2.507119e+000
1.663107200047543e-008	2.862329e+000	2.507241e+000
1.673107200047543e-008	2.864407e+000	2.507364e+000
1.693107200047543e-008	2.868555e+000	2.507614e+000
1.713107200047543e-008	2.872696e+000	2.507867e+000
1.723107200047543e-008	2.874764e+000	2.507996e+000
1.733107200047543e-008	2.876830e+000	2.508125e+000
1.743107200047543e-008	2.878894e+000	2.508255e+000
1.763107200047543e-008	2.883017e+000	2.508518e+000
1.783107200047544e-008	2.887131e+000	2.508783e+000
1.803107200047544e-008	2.891239e+000	2.509052e+000
1.833107200047544e-008	2.897385e+000	2.509459e+000
1.863107200047544e-008	2.903513e+000	2.509872e+000
1.893107200047545e-008	2.909623e+000	2.510290e+000
1.923107200047545e-008	2.915715e+000	2.510712e+000
1.953107200047545e-008	2.921789e+000	2.511138e+000
1.974535771476117e-008	2.926116e+000	2.511445e+000
1.995964342904688e-008	2.930433e+000	2.511754e+000
2.017392914333260e-008	2.934740e+000	2.512065e+000
2.038821485761832e-008	2.939037e+000	2.512377e+000
2.060250057190403e-008	2.943324e+000	2.512691e+000
2.081678628618975e-008	2.947601e+000	2.513007e+000
2.103107200047547e-008	2.951868e+000	2.513324e+000
2.135964342904690e-008	2.958391e+000	2.513814e+000
2.168821485761833e-008	2.964889e+000	2.514307e+000
2.201678628618976e-008	2.971361e+000	2.514801e+000
2.234535771476119e-008	2.977808e+000	2.515299e+000
2.267392914333262e-008	2.984229e+000	2.515798e+000
2.300250057190405e-008	2.990625e+000	2.516300e+000
2.333107200047549e-008	2.996996e+000	2.516805e+000
2.364535771476120e-008	3.003064e+000	2.517289e+000
2.395964342904692e-008	3.009107e+000	2.517774e+000
2.427392914333264e-008	3.015125e+000	2.518260e+000
2.458821485761836e-008	3.021117e+000	2.518747e+000
2.490250057190407e-008	3.027083e+000	2.519235e+000
2.521678628618979e-008	3.033025e+000	2.519724e+000
2.553107200047551e-008	3.038941e+000	2.520214e+000
2.594535771476122e-008	3.046699e+000	2.520861e+000
2.635964342904694e-008	3.054409e+000	2.521509e+000
2.677392914333266e-008	3.062071e+000	2.522157e+000
2.718821485761838e-008	3.069684e+000	2.522806e+000
2.760250057190410e-008	3.077250e+000	2.523455e+000
2.801678628618981e-008	3.084767e+000	2.524105e+000
2.843107200047553e-008	3.092235e+000	2.524755e+000
2.903107200047554e-008	3.102965e+000	2.525698e+000
2.963107200047554e-008	3.113582e+000	2.526640e+000
3.023107200047555e-008	3.124086e+000	2.527583e+000
3.083107200047555e-008	3.134478e+000	2.528526e+000
3.143107200047556e-008	3.144757e+000	2.529469e+000
3.203107200047556e-008	3.154923e+000	2.530412e+000
3.263107200047557e-008	3.164977e+000	2.531356e+000
3.351678628618986e-008	3.179608e+000	2.532748e+000
3.440250057190416e-008	3.193959e+000	2.534140e+000
3.528821485761845e-008	3.208032e+000	2.535533e+000
3.617392914333274e-008	3.221827e+000	2.536925e+000
3.705964342904704e-008	3.235343e+000	2.538317e+000
3.794535771476133e-008	3.248580e+000	2.539708e+000
3.883107200047562e-008	3.261539e+000	2.541100e+000
4.187392914333279e-008	3.304091e+000	2.545881e+000
4.491678628618996e-008	3.342557e+000	2.550657e+000
4.795964342904712e-008	3.376939e+000	2.555428e+000
5.100250057190429e-008	3.407234e+000	2.560194e+000
5.404535771476145e-008	3.433444e+000	2.564956e+000
5.708821485761862e-008	3.455568e+000	2.569712e+000
6.013107200047578e-008	3.473607e+000	2.574464e+000
6.367392914333272e-008	3.488566e+000	2.579989e+000
6.721678628618966e-008	3.497339e+000	2.585504e+000
7.075964342904660e-008	3.499926e+000	2.591010e+000
7.430250057190354e-008	3.496326e+000	2.596506e+000
7.784535771476049e-008	3.486540e+000	2.601992e+000
8.138821485761741e-008	3.470567e+000	2.607468e+000
8.493107200047436e-008	3.448408e+000	2.612935e+000
8.605964342904573e-008	3.440116e+000	2.614674e+000
8.718821485761708e-008	3.431244e+000	2.616412e+000
8.831678628618845e-008	3.421792e+000	2.618149e+000
8.944535771475981e-008	3.411761e+000	2.619884e+000
9.057392914333118e-008	3.401149e+000	2.621618e+000
9.170250057190255e-008	3.389957e+000	2.623351e+000
9.283107200047390e-008	3.378186e+000	2.625083e+000
9.371678628618814e-008	3.368560e+000	2.626441e+000
9.460250057190237e-008	3.358606e+000	2.627799e+000
9.548821485761661e-008	3.348323e+000	2.629155e+000
9.637392914333085e-008	3.337712e+000	2.630511e+000
9.725964342904509e-008	3.326772e+000	2.631866e+000
9.814535771475931e-008	3.315504e+000	2.633221e+000
9.903107200047355e-008	3.303907e+000	2.634574e+000
1.006310720004735e-007	3.282186e+000	2.637017e+000
1.014739291433306e-007	3.270330e+000	2.638303e+000
1.023167862861877e-007	3.258213e+000	2.639588e+000
1.031596434290448e-007	3.245836e+000	2.640872e+000
1.040025005719018e-007	3.233197e+000	2.642155e+000
1.048453577147589e-007	3.220297e+000	2.643437e+000
1.056882148576160e-007	3.207137e+000	2.644718e+000
1.065310720004731e-007	3.193715e+000	2.645999e+000
1.070453577147588e-007	3.185409e+000	2.646780e+000
1.075596434290445e-007	3.177015e+000	2.647560e+000
1.080739291433302e-007	3.168535e+000	2.648340e+000
1.085882148576159e-007	3.159967e+000	2.649119e+000
1.091025005719015e-007	3.151311e+000	2.649899e+000
1.096167862861872e-007	3.142569e+000	2.650677e+000
1.101310720004729e-007	3.133739e+000	2.651455e+000
1.106739291433300e-007	3.124327e+000	2.652276e+000
1.112167862861871e-007	3.114828e+000	2.653096e+000
1.117596434290443e-007	3.105241e+000	2.653916e+000
1.123025005719014e-007	3.095566e+000	2.654734e+000
1.128453577147585e-007	3.085803e+000	2.655552e+000
1.133882148576156e-007	3.075952e+000	2.656369e+000
1.139310720004727e-007	3.066013e+000	2.657185e+000
1.144596434290441e-007	3.056256e+000	2.657979e+000
1.149882148576155e-007	3.046425e+000	2.658772e+000
1.155167862861869e-007	3.036521e+000	2.659563e+000
1.160453577147583e-007	3.026542e+000	2.660353e+000
1.165739291433297e-007	3.016490e+000	2.661142e+000
1.171025005719011e-007	3.006364e+000	2.661930e+000
1.176310720004725e-007	2.996164e+000	2.662717e+000
1.186739291433297e-007	2.975818e+000	2.664266e+000
1.197167862861869e-007	2.955243e+000	2.665807e+000
1.207596434290441e-007	2.934439e+000	2.667342e+000
1.218025005719013e-007	2.913406e+000	2.668869e+000
1.228453577147584e-007	2.892144e+000	2.670389e+000
1.238882148576156e-007	2.870653e+000	2.671901e+000
1.249310720004728e-007	2.848933e+000	2.673407e+000
1.255310720004729e-007	2.836361e+000	2.674268e+000
1.261310720004729e-007	2.823734e+000	2.675126e+000
1.267310720004730e-007	2.811053e+000	2.675980e+000
1.273310720004730e-007	2.798318e+000	2.676829e+000
1.279310720004731e-007	2.785528e+000	2.677675e+000
1.285310720004731e-007	2.772684e+000	2.678518e+000
1.291310720004731e-007	2.759785e+000	2.679356e+000
1.295453577147589e-007	2.750853e+000	2.679932e+000
1.299596434290446e-007	2.741902e+000	2.680505e+000
1.303739291433304e-007	2.732931e+000	2.681076e+000
1.307882148576161e-007	2.723941e+000	2.681644e+000
1.312025005719019e-007	2.714931e+000	2.682209e+000
1.316167862861876e-007	2.705902e+000	2.682771e+000
1.320310720004734e-007	2.696854e+000	2.683331e+000
1.323167862861877e-007	2.690604e+000	2.683715e+000
1.326025005719020e-007	2.684347e+000	2.684097e+000
1.328882148576163e-007	2.678084e+000	2.684477e+000
1.331739291433306e-007	2.671813e+000	2.684856e+000
1.334596434290449e-007	2.665535e+000	2.685232e+000
1.337453577147592e-007	2.659250e+000	2.685606e+000
1.340310720004735e-007	2.652958e+000	2.685979e+000
1.342739291433307e-007	2.647605e+000	2.686294e+000
1.345167862861878e-007	2.642248e+000	2.686606e+000
1.347596434290450e-007	2.636887e+000	2.686916e+000
1.350025005719022e-007	2.631522e+000	2.687224e+000
1.352453577147593e-007	2.626153e+000	2.687530e+000
1.354882148576165e-007	2.620780e+000	2.687833e+000
1.357310720004736e-007	2.615404e+000	2.688134e+000
1.359453577147594e-007	2.610657e+000	2.688397e+000
1.361596434290451e-007	2.605908e+000	2.688658e+000
1.363739291433308e-007	2.601156e+000	2.688915e+000
1.365882148576166e-007	2.596403e+000	2.689169e+000
1.368025005719023e-007	2.591647e+000	2.689420e+000
1.370167862861880e-007	2.586889e+000	2.689669e+000
1.372310720004738e-007	2.582129e+000	2.689914e+000
1.376739291433309e-007	2.572283e+000	2.690413e+000
1.381167862861881e-007	2.562432e+000	2.690892e+000
1.385596434290453e-007	2.552577e+000	2.691350e+000
1.390025005719025e-007	2.542718e+000	2.691789e+000
1.394453577147596e-007	2.532853e+000	2.692209e+000
1.398882148576168e-007	2.522984e+000	2.692608e+000
1.403310720004740e-007	2.513111e+000	2.692987e+000
1.409167862861883e-007	2.500048e+000	2.693453e+000
1.415025005719027e-007	2.486991e+000	2.693867e+000
1.420882148576170e-007	2.473939e+000	2.694228e+000
1.426739291433313e-007	2.460893e+000	2.694537e+000
1.432596434290456e-007	2.447852e+000	2.694793e+000
1.438453577147600e-007	2.434817e+000	2.694997e+000
1.444310720004743e-007	2.421787e+000	2.695148e+000
1.446025005719029e-007	2.417978e+000	2.695180e+000
1.447739291433315e-007	2.414170e+000	2.695206e+000
1.449453577147601e-007	2.410363e+000	2.695226e+000
1.451167862861886e-007	2.406557e+000	2.695242e+000
1.452882148576172e-007	2.402753e+000	2.695252e+000
1.454596434290458e-007	2.398950e+000	2.695256e+000
1.456310720004744e-007	2.395148e+000	2.695256e+000
1.459453577147601e-007	2.388182e+000	2.695241e+000
1.462596434290458e-007	2.381222e+000	2.695207e+000
1.465739291433316e-007	2.374269e+000	2.695154e+000
1.468882148576173e-007	2.367322e+000	2.695082e+000
1.472025005719031e-007	2.360381e+000	2.694992e+000
1.475167862861888e-007	2.353446e+000	2.694883e+000
1.478310720004745e-007	2.346518e+000	2.694755e+000
1.482596434290460e-007	2.337082e+000	2.694549e+000
1.486882148576175e-007	2.327663e+000	2.694308e+000
1.491167862861889e-007	2.318261e+000	2.694031e+000
1.495453577147604e-007	2.308876e+000	2.693720e+000
1.499739291433318e-007	2.299508e+000	2.693373e+000
1.504025005719033e-007	2.290157e+000	2.692991e+000
1.508310720004748e-007	2.280823e+000	2.692574e+000
1.510310720004748e-007	2.276474e+000	2.692368e+000
1.511310720004748e-007	2.274302e+000	2.692262e+000
1.512310720004748e-007	2.272131e+000	2.692154e+000
1.513310720004748e-007	2.269960e+000	2.692045e+000
1.514310720004748e-007	2.267792e+000	2.691933e+000
1.515310720004748e-007	2.265624e+000	2.691820e+000
1.516310720004748e-007	2.263457e+000	2.691705e+000
1.517310720004748e-007	2.261292e+000	2.691588e+000
1.518310720004748e-007	2.259127e+000	2.691469e+000
1.520310720004749e-007	2.254802e+000	2.691226e+000
1.522310720004749e-007	2.250482e+000	2.690976e+000
1.524310720004749e-007	2.246167e+000	2.690718e+000
1.526310720004749e-007	2.241857e+000	2.690454e+000
1.528310720004749e-007	2.237552e+000	2.690184e+000
1.530310720004749e-007	2.233252e+000	2.689908e+000
1.532310720004750e-007	2.228957e+000	2.689626e+000
1.534310720004750e-007	2.224668e+000	2.689339e+000
1.536310720004750e-007	2.220385e+000	2.689047e+000
1.537310720004750e-007	2.218245e+000	2.688900e+000
1.538310720004750e-007	2.216107e+000	2.688751e+000
1.539310720004750e-007	2.213970e+000	2.688601e+000
1.540310720004750e-007	2.211834e+000	2.688451e+000
1.541310720004750e-007	2.209700e+000	2.688299e+000
1.542310720004750e-007	2.207567e+000	2.688146e+000
1.543310720004750e-007	2.205436e+000	2.687992e+000
1.544310720004750e-007	2.203306e+000	2.687837e+000
1.545310720004751e-007	2.201178e+000	2.687682e+000
1.546310720004751e-007	2.199052e+000	2.687525e+000
1.547310720004751e-007	2.196926e+000	2.687368e+000
1.548310720004751e-007	2.194803e+000	2.687209e+000
1.549310720004751e-007	2.192680e+000	2.687050e+000
1.551310720004751e-007	2.188440e+000	2.686729e+000
1.552310720004751e-007	2.186323e+000	2.686567e+000
1.553310720004751e-007	2.184207e+000	2.686405e+000
1.554310720004751e-007	2.182092e+000	2.686242e+000
1.555310720004751e-007	2.179979e+000	2.686078e+000
1.556310720004751e-007	2.177868e+000	2.685913e+000
1.557310720004751e-007	2.175758e+000	2.685748e+000
1.558310720004751e-007	2.173650e+000	2.685582e+000
1.559310720004752e-007	2.171544e+000	2.685415e+000
1.560310720004752e-007	2.169439e+000	2.685248e+000
1.561310720004752e-007	2.167336e+000	2.685080e+000
1.562310720004752e-007	2.165234e+000	2.684911e+000
1.563310720004752e-007	2.163134e+000	2.684742e+000
1.564310720004752e-007	2.161036e+000	2.684572e+000
1.565310720004752e-007	2.158939e+000	2.684402e+000
1.566310720004752e-007	2.156845e+000	2.684231e+000
1.567310720004752e-007	2.154752e+000	2.684060e+000
1.568310720004752e-007	2.152660e+000	2.683887e+000
1.569310720004752e-007	2.150570e+000	2.683715e+000
1.570310720004752e-007	2.148482e+000	2.683542e+000
1.571310720004752e-007	2.146396e+000	2.683369e+000
1.572310720004753e-007	2.144312e+000	2.683195e+000
1.573310720004753e-007	2.142229e+000	2.683021e+000
1.574310720004753e-007	2.140148e+000	2.682847e+000
1.575310720004753e-007	2.138069e+000	2.682672e+000
1.576310720004753e-007	2.135992e+000	2.682497e+000
1.577310720004753e-007	2.133916e+000	2.682321e+000
1.578310720004753e-007	2.131843e+000	2.682145e+000
1.579310720004753e-007	2.129771e+000	2.681969e+000
1.580310720004753e-007	2.127701e+000	2.681792e+000
1.582310720004753e-007	2.123566e+000	2.681438e+000
1.584310720004753e-007	2.119439e+000	2.681082e+000
1.587310720004754e-007	2.113263e+000	2.680546e+000
1.590310720004754e-007	2.107104e+000	2.680007e+000
1.593310720004754e-007	2.100963e+000	2.679465e+000
1.596310720004754e-007	2.094839e+000	2.678921e+000
1.599310720004755e-007	2.088733e+000	2.678373e+000
1.602310720004755e-007	2.082647e+000	2.677823e+000
1.605310720004755e-007	2.076578e+000	2.677271e+000
1.608310720004755e-007	2.070529e+000	2.676716e+000
1.611310720004755e-007	2.064498e+000	2.676159e+000
1.614310720004756e-007	2.058488e+000	2.675599e+000
1.617025005719042e-007	2.053066e+000	2.675091e+000
1.619739291433327e-007	2.047661e+000	2.674581e+000
1.622453577147614e-007	2.042273e+000	2.674070e+000
1.625167862861899e-007	2.036902e+000	2.673557e+000
1.627882148576185e-007	2.031547e+000	2.673042e+000
1.630596434290471e-007	2.026210e+000	2.672526e+000
1.633310720004757e-007	2.020889e+000	2.672008e+000
1.637025005719043e-007	2.013636e+000	2.671296e+000
1.640739291433329e-007	2.006418e+000	2.670583e+000
1.644453577147615e-007	1.999234e+000	2.669868e+000
1.648167862861901e-007	1.992085e+000	2.669150e+000
1.651882148576187e-007	1.984970e+000	2.668430e+000
1.655596434290473e-007	1.977890e+000	2.667707e+000
1.659310720004759e-007	1.970845e+000	2.666983e+000
1.664882148576188e-007	1.960343e+000	2.665892e+000
1.670453577147617e-007	1.949928e+000	2.664798e+000
1.676025005719046e-007	1.939600e+000	2.663699e+000
1.681596434290475e-007	1.929360e+000	2.662597e+000
1.687167862861904e-007	1.919206e+000	2.661491e+000
1.692739291433333e-007	1.909140e+000	2.660381e+000
1.698310720004762e-007	1.899162e+000	2.659268e+000
1.707167862861905e-007	1.883481e+000	2.657490e+000
1.716025005719049e-007	1.868055e+000	2.655705e+000
1.724882148576193e-007	1.852885e+000	2.653912e+000
1.733739291433336e-007	1.837970e+000	2.652112e+000
1.742596434290480e-007	1.823309e+000	2.650303e+000
1.751453577147623e-007	1.808904e+000	2.648487e+000
1.760310720004767e-007	1.794754e+000	2.646664e+000
1.787596434290483e-007	1.752641e+000	2.640990e+000
1.814882148576199e-007	1.713620e+000	2.635268e+000
1.842167862861916e-007	1.677690e+000	2.629497e+000
1.869453577147632e-007	1.644852e+000	2.623677e+000
1.896739291433348e-007	1.615106e+000	2.617808e+000
1.924025005719065e-007	1.588451e+000	2.611891e+000
1.951310720004781e-007	1.564887e+000	2.605924e+000
