Freq.	V(vout)
1.00000000000000e+000	(-7.75458076125772e-002dB,-1.24263326499076e-004°)
1.02329299228075e+000	(-7.75458076135696e-002dB,-1.27157791203990e-004°)
1.04712854805090e+000	(-7.75458076146088e-002dB,-1.30119676652932e-004°)
1.07151930523761e+000	(-7.75458076156946e-002dB,-1.33150553276771e-004°)
1.09647819614318e+000	(-7.75458076168330e-002dB,-1.36252028086413e-004°)
1.12201845430196e+000	(-7.75458076180239e-002dB,-1.39425745524854e-004°)
1.14815362149688e+000	(-7.75458076192722e-002dB,-1.42673388339089e-004°)
1.17489755493953e+000	(-7.75458076205789e-002dB,-1.45996678472325e-004°)
1.20226443461741e+000	(-7.75458076219479e-002dB,-1.49397377976981e-004°)
1.23026877081238e+000	(-7.75458076233811e-002dB,-1.52877289948947e-004°)
1.25892541179417e+000	(-7.75458076248834e-002dB,-1.56438259483612e-004°)
1.28824955169313e+000	(-7.75458076264557e-002dB,-1.60082174654158e-004°)
1.31825673855641e+000	(-7.75458076281000e-002dB,-1.63810967512643e-004°)
1.34896288259165e+000	(-7.75458076298242e-002dB,-1.67626615114395e-004°)
1.38038426460288e+000	(-7.75458076316290e-002dB,-1.71531140566280e-004°)
1.41253754462275e+000	(-7.75458076335185e-002dB,-1.75526614099373e-004°)
1.44543977074593e+000	(-7.75458076354995e-002dB,-1.79615154166629e-004°)
1.47910838816821e+000	(-7.75458076375681e-002dB,-1.83798928566109e-004°)
1.51356124843621e+000	(-7.75458076397398e-002dB,-1.88080155590378e-004°)
1.54881661891248e+000	(-7.75458076420116e-002dB,-1.92461105202673e-004°)
1.58489319246111e+000	(-7.75458076443896e-002dB,-1.96944100240468e-004°)
1.62181009735893e+000	(-7.75458076468804e-002dB,-2.01531517647070e-004°)
1.65958690743756e+000	(-7.75458076494890e-002dB,-2.06225789731910e-004°)
1.69824365246174e+000	(-7.75458076522211e-002dB,-2.11029405460182e-004°)
1.73780082874937e+000	(-7.75458076550777e-002dB,-2.15944911772530e-004°)
1.77827941003892e+000	(-7.75458076580745e-002dB,-2.20974914935464e-004°)
1.81970085860998e+000	(-7.75458076612114e-002dB,-2.26122081923240e-004°)
1.86208713666287e+000	(-7.75458076644952e-002dB,-2.31389141831927e-004°)
1.90546071796325e+000	(-7.75458076679317e-002dB,-2.36778887326405e-004°)
1.94984459975804e+000	(-7.75458076715337e-002dB,-2.42294176121076e-004°)
1.99526231496888e+000	(-7.75458076753039e-002dB,-2.47937932495063e-004°)
2.04173794466953e+000	(-7.75458076792513e-002dB,-2.53713148842698e-004°)
2.08929613085404e+000	(-7.75458076833845e-002dB,-2.59622887260133e-004°)
2.13796208950223e+000	(-7.75458076877133e-002dB,-2.65670281168900e-004°)
2.18776162394955e+000	(-7.75458076922464e-002dB,-2.71858536977296e-004°)
2.23872113856834e+000	(-7.75458076969906e-002dB,-2.78190935780463e-004°)
2.29086765276777e+000	(-7.75458077019615e-002dB,-2.84670835100062e-004°)
2.34422881531992e+000	(-7.75458077071640e-002dB,-2.91301670664484e-004°)
2.39883291901949e+000	(-7.75458077126146e-002dB,-2.98086958230516e-004°)
2.45470891568503e+000	(-7.75458077183221e-002dB,-3.05030295447437e-004°)
2.51188643150958e+000	(-7.75458077242971e-002dB,-3.12135363764544e-004°)
2.57039578276886e+000	(-7.75458077305553e-002dB,-3.19405930383105e-004°)
2.63026799189538e+000	(-7.75458077371064e-002dB,-3.26845850253778e-004°)
2.69153480392691e+000	(-7.75458077439658e-002dB,-3.34459068120557e-004°)
2.75422870333816e+000	(-7.75458077511513e-002dB,-3.42249620612325e-004°)
2.81838293126445e+000	(-7.75458077586733e-002dB,-3.50221638383132e-004°)
2.88403150312660e+000	(-7.75458077665496e-002dB,-3.58379348302322e-004°)
2.95120922666638e+000	(-7.75458077747975e-002dB,-3.66727075695674e-004°)
3.01995172040201e+000	(-7.75458077834336e-002dB,-3.75269246638743e-004°)
3.09029543251359e+000	(-7.75458077924784e-002dB,-3.84010390303631e-004°)
3.16227766016837e+000	(-7.75458078019464e-002dB,-3.92955141360412e-004°)
3.23593656929628e+000	(-7.75458078118659e-002dB,-4.02108242434490e-004°)
3.31131121482591e+000	(-7.75458078222505e-002dB,-4.11474546621210e-004°)
3.38844156139202e+000	(-7.75458078331225e-002dB,-4.21059020059026e-004°)
3.46736850452531e+000	(-7.75458078445082e-002dB,-4.30866744562619e-004°)
3.54813389233575e+000	(-7.75458078564321e-002dB,-4.40902920317338e-004°)
3.63078054770101e+000	(-7.75458078689134e-002dB,-4.51172868636411e-004°)
3.71535229097172e+000	(-7.75458078819892e-002dB,-4.61682034782372e-004°)
3.80189396320560e+000	(-7.75458078956760e-002dB,-4.72435990854214e-004°)
3.89045144994280e+000	(-7.75458079100109e-002dB,-4.83440438741789e-004°)
3.98107170553496e+000	(-7.75458079250190e-002dB,-4.94701213149025e-004°)
4.07380277804112e+000	(-7.75458079407336e-002dB,-5.06224284687562e-004°)
4.16869383470335e+000	(-7.75458079571934e-002dB,-5.18015763042452e-004°)
4.26579518801592e+000	(-7.75458079744248e-002dB,-5.30081900211594e-004°)
4.36515832240165e+000	(-7.75458079924725e-002dB,-5.42429093820624e-004°)
4.46683592150962e+000	(-7.75458080113667e-002dB,-5.55063890515023e-004°)
4.57088189614874e+000	(-7.75458080311512e-002dB,-5.67992989431235e-004°)
4.67735141287197e+000	(-7.75458080518707e-002dB,-5.81223245748636e-004°)
4.78630092322637e+000	(-7.75458080735641e-002dB,-5.94761674324244e-004°)
4.89778819368445e+000	(-7.75458080962821e-002dB,-6.08615453412085e-004°)
5.01187233627271e+000	(-7.75458081200714e-002dB,-6.22791928469200e-004°)
5.12861383991364e+000	(-7.75458081449796e-002dB,-6.37298616050306e-004°)
5.24807460249771e+000	(-7.75458081710650e-002dB,-6.52143207793170e-004°)
5.37031796370252e+000	(-7.75458081983764e-002dB,-6.67333574496816e-004°)
5.49540873857623e+000	(-7.75458082269741e-002dB,-6.82877770294729e-004°)
5.62341325190348e+000	(-7.75458082569214e-002dB,-6.98784036925265e-004°)
5.75439937337156e+000	(-7.75458082882803e-002dB,-7.15060808101523e-004°)
5.88843655355588e+000	(-7.75458083211183e-002dB,-7.31716713983021e-004°)
6.02559586074356e+000	(-7.75458083555013e-002dB,-7.48760585751511e-004°)
6.16595001861481e+000	(-7.75458083915072e-002dB,-7.66201460293394e-004°)
6.30957344480192e+000	(-7.75458084292071e-002dB,-7.84048584991197e-004°)
6.45654229034654e+000	(-7.75458084686855e-002dB,-8.02311422626653e-004°)
6.60693448007594e+000	(-7.75458085100263e-002dB,-8.20999656398000e-004°)
6.76082975391980e+000	(-7.75458085533149e-002dB,-8.40123195054133e-004°)
6.91830970918935e+000	(-7.75458085986390e-002dB,-8.59692178148362e-004°)
7.07945784384136e+000	(-7.75458086461017e-002dB,-8.79716981414527e-004°)
7.24435960074988e+000	(-7.75458086958023e-002dB,-9.00208222268361e-004°)
7.41310241300916e+000	(-7.75458087478448e-002dB,-9.21176765436977e-004°)
7.58577575029182e+000	(-7.75458088023392e-002dB,-9.42633728719489e-004°)
7.76247116628690e+000	(-7.75458088594042e-002dB,-9.64590488881821e-004°)
7.94328234724279e+000	(-7.75458089191585e-002dB,-9.87058687688817e-004°)
8.12830516164097e+000	(-7.75458089817247e-002dB,-1.01005023807686e-003°)
8.31763771102669e+000	(-7.75458090472420e-002dB,-1.03357733047025e-003°)
8.51138038202374e+000	(-7.75458091158465e-002dB,-1.05765243924478e-003°)
8.70963589956078e+000	(-7.75458091876880e-002dB,-1.08228832934174e-003°)
8.91250938133743e+000	(-7.75458092629126e-002dB,-1.10749806303613e-003°)
9.12010839355907e+000	(-7.75458093416808e-002dB,-1.13329500686239e-003°)
9.33254300796988e+000	(-7.75458094241629e-002dB,-1.15969283870156e-003°)
9.54992586021433e+000	(-7.75458095105300e-002dB,-1.18670555503346e-003°)
9.77237220955808e+000	(-7.75458096009729e-002dB,-1.21434747835779e-003°)
9.99999999999997e+000	(-7.75458096956746e-002dB,-1.24263326478812e-003°)
1.02329299228075e+001	(-7.75458097948392e-002dB,-1.27157791182276e-003°)
1.04712854805090e+001	(-7.75458098986771e-002dB,-1.30119676629665e-003°)
1.07151930523760e+001	(-7.75458100074090e-002dB,-1.33150553251841e-003°)
1.09647819614318e+001	(-7.75458101212637e-002dB,-1.36252028059699e-003°)
1.12201845430196e+001	(-7.75458102404892e-002dB,-1.39425745496230e-003°)
1.14815362149688e+001	(-7.75458103653297e-002dB,-1.42673388308417e-003°)
1.17489755493953e+001	(-7.75458104960557e-002dB,-1.45996678439460e-003°)
1.20226443461741e+001	(-7.75458106329397e-002dB,-1.49397377941766e-003°)
1.23026877081238e+001	(-7.75458107762785e-002dB,-1.52877289911212e-003°)
1.25892541179416e+001	(-7.75458109263706e-002dB,-1.56438259443179e-003°)
1.28824955169313e+001	(-7.75458110835363e-002dB,-1.60082174610834e-003°)
1.31825673855640e+001	(-7.75458112481112e-002dB,-1.63810967466220e-003°)
1.34896288259165e+001	(-7.75458114204387e-002dB,-1.67626615064652e-003°)
1.38038426460288e+001	(-7.75458116008906e-002dB,-1.71531140512978e-003°)
1.41253754462275e+001	(-7.75458117898463e-002dB,-1.75526614042260e-003°)
1.44543977074592e+001	(-7.75458119876999e-002dB,-1.79615154105431e-003°)
1.47910838816820e+001	(-7.75458121948872e-002dB,-1.83798928500534e-003°)
1.51356124843620e+001	(-7.75458124118393e-002dB,-1.88080155520113e-003°)
1.54881661891248e+001	(-7.75458126390144e-002dB,-1.92461105127384e-003°)
1.58489319246111e+001	(-7.75458128768933e-002dB,-1.96944100159794e-003°)
1.62181009735892e+001	(-7.75458131259847e-002dB,-2.01531517560626e-003°)
1.65958690743755e+001	(-7.75458133868141e-002dB,-2.06225789639283e-003°)
1.69824365246174e+001	(-7.75458136599380e-002dB,-2.11029405360931e-003°)
1.73780082874937e+001	(-7.75458139459314e-002dB,-2.15944911666181e-003°)
1.77827941003892e+001	(-7.75458142454064e-002dB,-2.20974914821509e-003°)
1.81970085860998e+001	(-7.75458145589944e-002dB,-2.26122081801135e-003°)
1.86208713666286e+001	(-7.75458148873580e-002dB,-2.31389141701089e-003°)
1.90546071796324e+001	(-7.75458152312017e-002dB,-2.36778887186209e-003°)
1.94984459975804e+001	(-7.75458155912473e-002dB,-2.42294175970854e-003°)
1.99526231496887e+001	(-7.75458159682636e-002dB,-2.47937932334097e-003°)
2.04173794466952e+001	(-7.75458163630473e-002dB,-2.53713148670220e-003°)
2.08929613085403e+001	(-7.75458167764334e-002dB,-2.59622887075319e-003°)
2.13796208950222e+001	(-7.75458172093063e-002dB,-2.65670280970869e-003°)
2.18776162394954e+001	(-7.75458176625756e-002dB,-2.71858536765103e-003°)
2.23872113856833e+001	(-7.75458181372085e-002dB,-2.78190935553092e-003°)
2.29086765276776e+001	(-7.75458186342150e-002dB,-2.84670834856431e-003°)
2.34422881531991e+001	(-7.75458191546371e-002dB,-2.91301670403429e-003°)
2.39883291901948e+001	(-7.75458196995918e-002dB,-2.98086957950790e-003°)
2.45470891568502e+001	(-7.75458202702263e-002dB,-3.05030295147705e-003°)
2.51188643150957e+001	(-7.75458208677509e-002dB,-3.12135363443376e-003°)
2.57039578276885e+001	(-7.75458214934421e-002dB,-3.19405930038967e-003°)
2.63026799189537e+001	(-7.75458221486213e-002dB,-3.26845849885028e-003°)
2.69153480392690e+001	(-7.75458228346731e-002dB,-3.34459067725433e-003°)
2.75422870333815e+001	(-7.75458235530587e-002dB,-3.42249620188943e-003°)
2.81838293126444e+001	(-7.75458243053000e-002dB,-3.50221637929470e-003°)
2.88403150312659e+001	(-7.75458250929974e-002dB,-3.58379347816215e-003°)
2.95120922666637e+001	(-7.75458259178159e-002dB,-3.66727075174800e-003°)
3.01995172040200e+001	(-7.75458267815086e-002dB,-3.75269246080617e-003°)
3.09029543251358e+001	(-7.75458276859047e-002dB,-3.84010389705589e-003°)
3.16227766016837e+001	(-7.75458286329191e-002dB,-3.92955140719597e-003°)
3.23593656929627e+001	(-7.75458296245717e-002dB,-4.02108241747845e-003°)
3.31131121482590e+001	(-7.75458306629543e-002dB,-4.11474545885457e-003°)
3.38844156139201e+001	(-7.75458317502776e-002dB,-4.21059019270653e-003°)
3.46736850452530e+001	(-7.75458328888445e-002dB,-4.30866743717861e-003°)
3.54813389233574e+001	(-7.75458340810711e-002dB,-4.40902919412164e-003°)
3.63078054770100e+001	(-7.75458353294841e-002dB,-4.51172867666500e-003°)
3.71535229097171e+001	(-7.75458366367348e-002dB,-4.61682033743093e-003°)
3.80189396320559e+001	(-7.75458380055904e-002dB,-4.72435989740607e-003°)
3.89045144994279e+001	(-7.75458394389602e-002dB,-4.83440437548539e-003°)
3.98107170553495e+001	(-7.75458409398846e-002dB,-4.94701211870433e-003°)
4.07380277804111e+001	(-7.75458425115443e-002dB,-5.06224283317527e-003°)
4.16869383470333e+001	(-7.75458441572707e-002dB,-5.18015761574433e-003°)
4.26579518801591e+001	(-7.75458458805628e-002dB,-5.30081898638583e-003°)
4.36515832240164e+001	(-7.75458476850691e-002dB,-5.42429092135112e-003°)
4.46683592150961e+001	(-7.75458495746154e-002dB,-5.55063888708965e-003°)
4.57088189614873e+001	(-7.75458515532250e-002dB,-5.67992987496009e-003°)
4.67735141287196e+001	(-7.75458536250719e-002dB,-5.81223243675004e-003°)
4.78630092322636e+001	(-7.75458557945665e-002dB,-5.94761672102307e-003°)
4.89778819368444e+001	(-7.75458580663034e-002dB,-6.08615451031237e-003°)
5.01187233627270e+001	(-7.75458604451084e-002dB,-6.22791925918076e-003°)
5.12861383991362e+001	(-7.75458629360186e-002dB,-6.37298613316727e-003°)
5.24807460249770e+001	(-7.75458655443252e-002dB,-6.52143204864087e-003°)
5.37031796370250e+001	(-7.75458682755574e-002dB,-6.67333571358248e-003°)
5.49540873857622e+001	(-7.75458711355046e-002dB,-6.82877766931692e-003°)
5.62341325190346e+001	(-7.75458741302400e-002dB,-6.98784033321706e-003°)
5.75439937337154e+001	(-7.75458772661161e-002dB,-7.15060804240242e-003°)
5.88843655355586e+001	(-7.75458805497717e-002dB,-7.31716709845583e-003°)
6.02559586074355e+001	(-7.75458839881906e-002dB,-7.48760581318166e-003°)
6.16595001861479e+001	(-7.75458875886498e-002dB,-7.66201455542980e-003°)
6.30957344480190e+001	(-7.75458913587989e-002dB,-7.84048579901036e-003°)
6.45654229034652e+001	(-7.75458953066307e-002dB,-8.02311417172448e-003°)
6.60693448007593e+001	(-7.75458994405169e-002dB,-8.20999650553712e-003°)
6.76082975391978e+001	(-7.75459037692248e-002dB,-8.40123188791868e-003°)
6.91830970918933e+001	(-7.75459083019384e-002dB,-8.59692171438223e-003°)
7.07945784384134e+001	(-7.75459130482756e-002dB,-8.79716974224484e-003°)
7.24435960074986e+001	(-7.75459180182988e-002dB,-9.00208214564091e-003°)
7.41310241300914e+001	(-7.75459232225512e-002dB,-9.21176757181703e-003°)
7.58577575029180e+001	(-7.75459286720703e-002dB,-9.42633719873804e-003°)
7.76247116628688e+001	(-7.75459343784199e-002dB,-9.64590479403500e-003°)
7.94328234724277e+001	(-7.75459403537027e-002dB,-9.87058677532612e-003°)
8.12830516164095e+001	(-7.75459466105909e-002dB,-1.01005022719429e-002°)
8.31763771102667e+001	(-7.75459531623588e-002dB,-1.03357731880937e-002°)
8.51138038202372e+001	(-7.75459600228974e-002dB,-1.05765242674992e-002°)
8.70963589956076e+001	(-7.75459672067675e-002dB,-1.08228831595326e-002°)
8.91250938133741e+001	(-7.75459747292028e-002dB,-1.10749804869011e-002°)
9.12010839355905e+001	(-7.75459826061582e-002dB,-1.13329499149035e-002°)
9.33254300796986e+001	(-7.75459908543446e-002dB,-1.15969282223013e-002°)
9.54992586021431e+001	(-7.75459994912522e-002dB,-1.18670553738400e-002°)
9.77237220955805e+001	(-7.75460085352098e-002dB,-1.21434745944605e-002°)
9.99999999999995e+001	(-7.75460180053891e-002dB,-1.24263324452382e-002°)
1.02329299228075e+002	(-7.75460279218906e-002dB,-1.27157789010918e-002°)
1.04712854805089e+002	(-7.75460383057414e-002dB,-1.30119674303013e-002°)
1.07151930523760e+002	(-7.75460491789647e-002dB,-1.33150550758788e-002°)
1.09647819614318e+002	(-7.75460605646280e-002dB,-1.36252025388346e-002°)
1.12201845430196e+002	(-7.75460724868851e-002dB,-1.39425742633823e-002°)
1.14815362149688e+002	(-7.75460849710162e-002dB,-1.42673385241293e-002°)
1.17489755493952e+002	(-7.75460980435083e-002dB,-1.45996675152977e-002°)
1.20226443461741e+002	(-7.75461117320885e-002dB,-1.49397374420235e-002°)
1.23026877081237e+002	(-7.75461260657903e-002dB,-1.52877286137825e-002°)
1.25892541179416e+002	(-7.75461410750172e-002dB,-1.56438255399921e-002°)
1.28824955169313e+002	(-7.75461567916099e-002dB,-1.60082170278405e-002°)
1.31825673855640e+002	(-7.75461732489025e-002dB,-1.63810962823939e-002°)
1.34896288259165e+002	(-7.75461904818014e-002dB,-1.67626610090359e-002°)
1.38038426460288e+002	(-7.75462085268634e-002dB,-1.71531135182928e-002°)
1.41253754462275e+002	(-7.75462274223623e-002dB,-1.75526608331007e-002°)
1.44543977074592e+002	(-7.75462472083789e-002dB,-1.79615147985714e-002°)
1.47910838816820e+002	(-7.75462679268787e-002dB,-1.83798921943139e-002°)
1.51356124843620e+002	(-7.75462896218166e-002dB,-1.88080148493738e-002°)
1.54881661891247e+002	(-7.75463123392020e-002dB,-1.92461097598487e-002°)
1.58489319246110e+002	(-7.75463361272232e-002dB,-1.96944092092435e-002°)
1.62181009735892e+002	(-7.75463610363437e-002dB,-2.01531508916296e-002°)
1.65958690743755e+002	(-7.75463871193922e-002dB,-2.06225780376717e-002°)
1.69824365246173e+002	(-7.75464144316949e-002dB,-2.11029395435913e-002°)
1.73780082874936e+002	(-7.75464430311907e-002dB,-2.15944901031332e-002°)
1.77827941003891e+002	(-7.75464729785367e-002dB,-2.20974903426063e-002°)
1.81970085860997e+002	(-7.75465043372586e-002dB,-2.26122069590695e-002°)
1.86208713666286e+002	(-7.75465371738669e-002dB,-2.31389128617367e-002°)
1.90546071796323e+002	(-7.75465715580201e-002dB,-2.36778873166748e-002°)
1.94984459975803e+002	(-7.75466075626493e-002dB,-2.42294160948731e-002°)
1.99526231496887e+002	(-7.75466452641206e-002dB,-2.47937916237602e-002°)
2.04173794466952e+002	(-7.75466847424077e-002dB,-2.53713131422515e-002°)
2.08929613085403e+002	(-7.75467260812555e-002dB,-2.59622868594071e-002°)
2.13796208950222e+002	(-7.75467693683390e-002dB,-2.65670261167855e-002°)
2.18776162394954e+002	(-7.75468146954719e-002dB,-2.71858515545791e-002°)
2.23872113856832e+002	(-7.75468621588135e-002dB,-2.78190912816190e-002°)
2.29086765276776e+002	(-7.75469118590318e-002dB,-2.84670810493401e-002°)
2.34422881531991e+002	(-7.75469639015487e-002dB,-2.91301644297973e-002°)
2.39883291901947e+002	(-7.75470183967541e-002dB,-2.98086929978290e-002°)
2.45470891568501e+002	(-7.75470754602375e-002dB,-3.05030265174631e-002°)
2.51188643150956e+002	(-7.75471352130402e-002dB,-3.12135331326649e-002°)
2.57039578276885e+002	(-7.75471977819028e-002dB,-3.19405895625275e-002°)
2.63026799189536e+002	(-7.75472632995433e-002dB,-3.26845813010093e-002°)
2.69153480392690e+002	(-7.75473319049395e-002dB,-3.34459028213228e-002°)
2.75422870333815e+002	(-7.75474037436029e-002dB,-3.42249577850853e-002°)
2.81838293126443e+002	(-7.75474789679171e-002dB,-3.50221592563390e-002°)
2.88403150312659e+002	(-7.75475577374425e-002dB,-3.58379299205585e-002°)
2.95120922666637e+002	(-7.75476402192614e-002dB,-3.66727023087572e-002°)
3.01995172040200e+002	(-7.75477265883237e-002dB,-3.75269190268147e-002°)
3.09029543251357e+002	(-7.75478170278368e-002dB,-3.84010329901451e-002°)
3.16227766016836e+002	(-7.75479117296299e-002dB,-3.92955076638310e-002°)
3.23593656929626e+002	(-7.75480108945778e-002dB,-4.02108173083510e-002°)
3.31131121482589e+002	(-7.75481147330234e-002dB,-4.11474472310297e-002°)
3.38844156139200e+002	(-7.75482234652213e-002dB,-4.21058940433450e-002°)
3.46736850452529e+002	(-7.75483373218067e-002dB,-4.30866659242278e-002°)
3.54813389233573e+002	(-7.75484565442841e-002dB,-4.40902828894948e-002°)
3.63078054770099e+002	(-7.75485813855418e-002dB,-4.51172770675556e-002°)
3.71535229097170e+002	(-7.75487121103831e-002dB,-4.61681929815427e-002°)
3.80189396320558e+002	(-7.75488489960869e-002dB,-4.72435878380109e-002°)
3.89045144994278e+002	(-7.75489923330166e-002dB,-4.83440318223617e-002°)
3.98107170553494e+002	(-7.75491424251994e-002dB,-4.94701084011480e-002°)
4.07380277804110e+002	(-7.75492995910057e-002dB,-5.06224146314192e-002°)
4.16869383470332e+002	(-7.75494641637999e-002dB,-5.18015614772718e-002°)
4.26579518801589e+002	(-7.75496364926657e-002dB,-5.30081741337715e-002°)
4.36515832240163e+002	(-7.75498169431320e-002dB,-5.42428923584200e-002°)
4.46683592150960e+002	(-7.75500058979632e-002dB,-5.55063708103413e-002°)
4.57088189614872e+002	(-7.75502037579451e-002dB,-5.67992793973680e-002°)
4.67735141287195e+002	(-7.75504109427733e-002dB,-5.81223036312099e-002°)
4.78630092322635e+002	(-7.75506278919136e-002dB,-5.94761449908958e-002°)
4.89778819368443e+002	(-7.75508550655395e-002dB,-6.08615212946781e-002°)
5.01187233627268e+002	(-7.75510929455122e-002dB,-6.22791670805994e-002°)
5.12861383991361e+002	(-7.75513420364142e-002dB,-6.37298339959216e-002°)
5.24807460249769e+002	(-7.75516028665888e-002dB,-6.52142911956247e-002°)
